# Hz S DB R 50
! CMT, SC5090, 24087134, 25.3.3/4
! Date: 15.11.2025 14:39:44
! Data: Format (Calibration Info)
! Freq	S11:dB/Ang(F2)	S21:dB/Ang(F2)	S12:dB/Ang(F2)	S22:dB/Ang(F2)
3.00000000000E+05	-2.23443633806E-02	-1.07247016257E+00	-5.48788127498E+01	-1.39510927879E+02	-7.13457166927E+01	2.38895360451E+01	-6.48296081864E-02	-1.47593853172E+00
1.29996666667E+06	-1.59385428534E-01	-3.69551594072E+00	-6.60704433983E+01	-8.36656078988E+01	-6.78823708183E+01	3.67114020111E+01	-3.24100240776E-02	-5.13254736923E+00
2.29993333333E+06	-9.15980651804E-02	-5.39593338533E+00	-6.41935485163E+01	-1.45370484236E+02	-6.31895067268E+01	-1.10100955924E+02	-1.90421612449E-02	-8.50025213392E+00
3.29990000000E+06	3.63815032912E-02	-7.80687354407E+00	-7.01627600331E+01	-1.43967255597E+02	-6.68452389247E+01	-8.44288115873E+01	-3.99179346184E-03	-1.24988018178E+01
4.29986666667E+06	1.86498875748E-01	-1.08296500207E+01	-6.65529730202E+01	6.29278299678E+01	-6.82631741517E+01	1.19323211925E+02	1.60158926687E-02	-1.59365640555E+01
5.29983333333E+06	2.64485675121E-01	-1.45123851788E+01	-6.61166809151E+01	-4.31724772447E+01	-6.21780171726E+01	1.07219631136E+02	-1.41968500918E-02	-1.95223275263E+01
6.29980000000E+06	3.02691827063E-01	-1.86146482380E+01	-7.08550120194E+01	-6.73189914065E+01	-7.24774671676E+01	1.54584892524E+02	9.01729085847E-04	-2.33529684853E+01
7.29976666667E+06	2.08242103102E-01	-2.33659984247E+01	-6.46103063583E+01	1.23310081137E+02	-8.44228223718E+01	-1.24956097313E+02	-4.24483474701E-02	-2.70467267291E+01
8.29973333333E+06	1.03196406658E-01	-2.78020158023E+01	-6.86129855831E+01	1.21999022034E+02	-7.74506394033E+01	3.76216408742E+01	-4.86604563544E-03	-3.03701214591E+01
9.29970000000E+06	-1.93132137549E-01	-3.22681293139E+01	-7.62595472213E+01	-1.08864725413E+02	-7.42877337233E+01	-9.12018616485E+01	-8.97149764798E-03	-3.40881882603E+01
1.02996666667E+07	-5.04097451843E-01	-3.68809144619E+01	-7.01557807805E+01	1.79428127106E+02	-7.14952628221E+01	1.34403209282E+02	-1.55335688970E-02	-3.74380895832E+01
1.12996333333E+07	-9.53809315746E-01	-4.06568923684E+01	-6.45838744685E+01	-2.76589703604E+01	-7.23745842268E+01	-1.52489573113E+02	5.82699823491E-03	-4.09183384107E+01
1.22996000000E+07	-1.43964614384E+00	-4.46612611922E+01	-5.92662443357E+01	-1.12440150128E+01	-7.02955731588E+01	-1.27477140804E+02	-1.70272612699E-02	-4.41661722742E+01
1.32995666667E+07	-1.99257610996E+00	-4.82356740839E+01	-5.76878167853E+01	-8.31277593659E+01	-7.60491716088E+01	8.37116315049E+01	-2.86193387206E-02	-4.76417809959E+01
1.42995333333E+07	-2.50555934940E+00	-5.06220978147E+01	-6.13691523834E+01	-4.48562008769E+01	-7.36744463329E+01	6.41130308160E+01	4.70090702594E-02	-5.03446687568E+01
1.52995000000E+07	-3.10125284510E+00	-5.34789855362E+01	-5.80488892769E+01	-3.00878005627E+01	-8.84698952311E+01	1.20695875936E+02	1.67230561269E-02	-5.38331853481E+01
1.62994666667E+07	-3.77953220013E+00	-5.59709056215E+01	-5.57683138962E+01	-6.41480215471E+01	-7.29559542089E+01	-8.56297153559E+01	1.50949752887E-02	-5.69429198332E+01
1.72994333333E+07	-4.39129284865E+00	-5.76659952751E+01	-5.55983044790E+01	-7.91661981776E+01	-7.94947629390E+01	-7.17530661303E+01	1.20479749624E-02	-5.97774689929E+01
1.82994000000E+07	-5.14424168430E+00	-5.95790179208E+01	-5.37772158145E+01	-8.47602360097E+01	-6.98644023129E+01	-3.05631295480E+01	6.91674956931E-03	-6.30936944522E+01
1.92993666667E+07	-5.81570665965E+00	-6.04772242821E+01	-5.21307635835E+01	-8.44006155814E+01	-6.46494292240E+01	7.24116378065E+01	-7.53918905092E-03	-6.56303931200E+01
2.02993333333E+07	-6.53549104306E+00	-6.13476851734E+01	-5.00645036733E+01	-9.05674146759E+01	-6.95084317714E+01	-5.53657224005E+01	-2.84867544388E-03	-6.86591444509E+01
2.12993000000E+07	-7.26122670303E+00	-6.15218704528E+01	-4.91668347800E+01	-8.68336266825E+01	-7.27162231467E+01	-7.76823881047E+01	1.55578741657E-02	-7.14241163790E+01
2.22992666667E+07	-8.04511010207E+00	-6.17129586264E+01	-4.76608944364E+01	-1.02634833925E+02	-7.71686355247E+01	-1.66908749919E+02	3.10406342483E-02	-7.42341381362E+01
2.32992333333E+07	-8.76930904286E+00	-6.12785844553E+01	-4.57555836368E+01	-9.85945463833E+01	-7.12062891625E+01	1.27366087383E+01	6.18725008865E-03	-7.68966821835E+01
2.42992000000E+07	-9.56993377571E+00	-6.00989117395E+01	-4.49280482516E+01	-1.00827513025E+02	-6.99114600274E+01	6.31454776694E+01	1.12150074164E-02	-7.92693067162E+01
2.52991666667E+07	-1.02676495544E+01	-5.85410013581E+01	-4.38269482599E+01	-1.04438774871E+02	-7.40573019566E+01	9.16627905473E+01	2.17155871284E-02	-8.16508260804E+01
2.62991333333E+07	-1.09901954572E+01	-5.64022530006E+01	-4.29436855450E+01	-1.09775050678E+02	-7.11011186398E+01	-1.20461707877E+02	5.25107891604E-02	-8.42927580585E+01
2.72991000000E+07	-1.17064809128E+01	-5.36764230888E+01	-4.20074412367E+01	-1.10086262817E+02	-6.78069071614E+01	-4.38044840151E+01	2.70664557132E-02	-8.65455004500E+01
2.82990666667E+07	-1.23199943233E+01	-5.03721416150E+01	-4.08303831457E+01	-1.14224387852E+02	-7.42521274924E+01	-8.47921259671E+01	1.22177095666E-02	-8.89465726856E+01
2.92990333333E+07	-1.28882704022E+01	-4.63520072557E+01	-3.97665851354E+01	-1.17775668608E+02	-7.14765336070E+01	6.31111756760E+01	1.86605269290E-03	-9.14333736929E+01
3.02990000000E+07	-1.34465725858E+01	-4.17175483402E+01	-3.87227874182E+01	-1.21915232909E+02	-7.78949435383E+01	4.39800441143E+01	-4.54026446839E-03	-9.36340632820E+01
3.12989666667E+07	-1.37708806281E+01	-3.69059328558E+01	-3.75783785306E+01	-1.23234269520E+02	-7.79010183777E+01	5.84255171352E+01	3.79288654998E-02	-9.55242767677E+01
3.22989333333E+07	-1.40152688258E+01	-3.13962789641E+01	-3.68606211810E+01	-1.27052594271E+02	-6.91112630004E+01	1.78152564730E+02	4.91893947817E-02	-9.78620428890E+01
3.32989000000E+07	-1.41404556680E+01	-2.60401296906E+01	-3.61330791227E+01	-1.29333193654E+02	-6.53979887709E+01	1.40157040161E+02	5.71722615933E-02	-9.96314444431E+01
3.42988666667E+07	-1.40861119711E+01	-2.11817225888E+01	-3.52970058520E+01	-1.30809100789E+02	-6.67549933911E+01	1.25768046566E+02	-1.43770661437E-03	-1.01944349776E+02
3.52988333333E+07	-1.39907395329E+01	-1.65783204799E+01	-3.44336918278E+01	-1.34802889010E+02	-8.46004323370E+01	-4.86528425594E+01	5.41726354519E-02	-1.03643956881E+02
3.62988000000E+07	-1.37771099845E+01	-1.26586502977E+01	-3.37236558636E+01	-1.37203999012E+02	-6.76980323984E+01	1.49736651072E+02	2.86540056459E-02	-1.05301654246E+02
3.72987666667E+07	-1.34902930920E+01	-8.54515762978E+00	-3.29329127827E+01	-1.39970244146E+02	-7.29064490174E+01	1.38124775496E+02	2.82741499689E-02	-1.07118414718E+02
3.82987333333E+07	-1.31841117398E+01	-5.27486706578E+00	-3.25234253036E+01	-1.42091723263E+02	-7.33397244528E+01	-3.48245945143E+01	2.58599979268E-02	-1.08973157930E+02
3.92987000000E+07	-1.27945288774E+01	-2.52775586922E+00	-3.16397517677E+01	-1.43564362223E+02	-7.78736119763E+01	4.69854487656E+01	4.02793662660E-02	-1.10567684507E+02
4.02986666667E+07	-1.24428203258E+01	-3.60818298065E-01	-3.09795081449E+01	-1.45940884463E+02	-6.25546890173E+01	-1.61945817881E+02	3.20492806380E-02	-1.12321395340E+02
4.12986333333E+07	-1.20848481212E+01	1.62359932039E+00	-3.02199043034E+01	-1.48303371071E+02	-8.79119841551E+01	2.10383119430E+01	2.51449200244E-02	-1.14060243243E+02
4.22986000000E+07	-1.17291373027E+01	2.97753618987E+00	-2.96277892634E+01	-1.51082562508E+02	-7.81214573083E+01	1.02527978844E+01	4.15365637217E-02	-1.15579897121E+02
4.32985666667E+07	-1.13704015136E+01	4.38522891902E+00	-2.89597261274E+01	-1.51767528018E+02	-6.37693536793E+01	1.55743834470E+02	3.01291955293E-02	-1.17258476403E+02
4.42985333333E+07	-1.09901474048E+01	5.15754212552E+00	-2.82258812230E+01	-1.54312224974E+02	-7.36744383739E+01	1.46811170675E+02	2.56659337746E-02	-1.18572294098E+02
4.52985000000E+07	-1.06594857321E+01	5.82921037727E+00	-2.75524014810E+01	-1.56615576281E+02	-6.89214224347E+01	-1.90391912111E+01	3.31920753495E-02	-1.20297887101E+02
4.62984666667E+07	-1.03546842328E+01	6.31837372192E+00	-2.70267687697E+01	-1.58387551065E+02	-7.43839078797E+01	1.09682952888E+01	4.36299832693E-02	-1.21700607482E+02
4.72984333333E+07	-1.00506906511E+01	6.90813343626E+00	-2.62789857296E+01	-1.60876622456E+02	-6.25375731051E+01	-7.70338241966E+01	6.94396412613E-03	-1.23134098604E+02
4.82984000000E+07	-9.76314084824E+00	7.13984969879E+00	-2.56393708231E+01	-1.62349253381E+02	-7.46657965538E+01	-4.62351020057E+01	2.22021792446E-02	-1.24607395778E+02
4.92983666667E+07	-9.48362320600E+00	7.07909299063E+00	-2.49748218830E+01	-1.65204001806E+02	-7.70397189521E+01	1.79603359364E+02	1.97452352301E-02	-1.25821289809E+02
5.02983333333E+07	-9.23895369859E+00	7.02078200628E+00	-2.45724723143E+01	-1.66826191223E+02	-6.43613892713E+01	1.26220256412E+02	6.05043162541E-04	-1.27336508357E+02
5.12983000000E+07	-9.00583195636E+00	7.10147030920E+00	-2.39075221878E+01	-1.68526517922E+02	-6.88944207916E+01	-1.12833368275E+02	5.01345061601E-02	-1.28428978613E+02
5.22982666667E+07	-8.72692008788E+00	7.09950729174E+00	-2.32435209130E+01	-1.70759293625E+02	-7.38657525649E+01	-1.39638819535E+02	2.26857271173E-02	-1.29836081608E+02
5.32982333333E+07	-8.53610731853E+00	6.71350692838E+00	-2.27378404129E+01	-1.72562587408E+02	-7.60591653200E+01	1.79178928832E+02	4.47895260822E-02	-1.31123863534E+02
5.42982000000E+07	-8.31888114710E+00	6.33233986545E+00	-2.21622563103E+01	-1.74618948272E+02	-7.25062394666E+01	1.19330207046E+02	5.92988528982E-02	-1.32523748391E+02
5.52981666667E+07	-8.11246441863E+00	5.83106688298E+00	-2.16080108173E+01	-1.77031719196E+02	-7.37925090925E+01	-1.32046986732E+02	3.14904478741E-02	-1.33245617007E+02
5.62981333333E+07	-7.93239231970E+00	5.49098812568E+00	-2.09953848442E+01	-1.78592299293E+02	-6.71065374598E+01	-7.08559485645E+01	5.74879149752E-02	-1.34537609261E+02
5.72981000000E+07	-7.72767870397E+00	5.26932148325E+00	-2.04734363516E+01	1.79421255526E+02	-6.76066150538E+01	-3.73908102542E+01	2.63595901495E-02	-1.35837534747E+02
5.82980666667E+07	-7.54847887545E+00	4.69947542666E+00	-1.99419530354E+01	1.77711155066E+02	-7.06611346472E+01	-6.58952499984E+01	1.91945050441E-02	-1.37055213090E+02
5.92980333333E+07	-7.38122151764E+00	3.94217805375E+00	-1.94363887495E+01	1.75481469700E+02	-6.32370586270E+01	-4.44477886818E+00	4.46896526374E-02	-1.38017260001E+02
6.02980000000E+07	-7.25521067859E+00	3.60137770437E+00	-1.88698512148E+01	1.73457543212E+02	-6.66110903138E+01	-2.53241862036E+01	1.76842211216E-02	-1.39322978259E+02
6.12979666667E+07	-7.10434127551E+00	2.98906042893E+00	-1.83663770826E+01	1.72003950138E+02	-7.40264552286E+01	1.24150827717E+01	6.53344731144E-02	-1.40160808217E+02
6.22979333333E+07	-6.94053075364E+00	2.52126345938E+00	-1.77885980145E+01	1.69792923857E+02	-6.61844082908E+01	6.93381223096E+01	3.75015947942E-02	-1.41098285219E+02
6.32979000000E+07	-6.79389325582E+00	1.68315850447E+00	-1.72778456137E+01	1.68117704862E+02	-6.08283145194E+01	-9.99692120201E+01	3.02074474125E-02	-1.42429614770E+02
6.42978666667E+07	-6.65536227624E+00	1.29268452224E+00	-1.67692121710E+01	1.66192123657E+02	-8.14935547722E+01	-8.87174754979E+01	7.34768868487E-02	-1.43376656865E+02
6.52978333333E+07	-6.53027226548E+00	5.95023196099E-01	-1.62436257693E+01	1.64366977084E+02	-7.30905772827E+01	-1.46120601380E+02	6.12556286057E-03	-1.44388446489E+02
6.62978000000E+07	-6.41943634957E+00	8.45785981542E-02	-1.57134719276E+01	1.62237014605E+02	-6.98264818648E+01	-8.06837255877E+01	3.25274053015E-02	-1.45433937550E+02
6.72977666667E+07	-6.30335611733E+00	-6.68008575026E-01	-1.52057295977E+01	1.60453018884E+02	-6.72004045975E+01	-7.06394665532E+01	3.68059643124E-02	-1.46333459724E+02
6.82977333333E+07	-6.20230273874E+00	-1.32564544827E+00	-1.47076880587E+01	1.58332294750E+02	-6.79504488165E+01	2.06901965558E+01	3.86013265560E-02	-1.47254767827E+02
6.92977000000E+07	-6.09621893213E+00	-2.07528517062E+00	-1.41458548068E+01	1.56379955823E+02	-6.93152764559E+01	-6.52183432708E+01	9.65491635488E-03	-1.48175862549E+02
7.02976666667E+07	-5.97991978977E+00	-2.57585933825E+00	-1.36791847435E+01	1.54321334064E+02	-7.86666836151E+01	1.34410828259E+02	3.21494162225E-02	-1.48970807846E+02
7.12976333333E+07	-5.90848209391E+00	-3.39011530965E+00	-1.31769350318E+01	1.52510786090E+02	-6.75798857274E+01	-1.73814055580E+01	1.38800980321E-02	-1.49972785929E+02
7.22976000000E+07	-5.78678923824E+00	-4.09696938750E+00	-1.27014021765E+01	1.50394739185E+02	-7.59883091880E+01	1.09978416359E+02	1.39298173648E-02	-1.51003441112E+02
7.32975666667E+07	-5.64509483263E+00	-5.01973058852E+00	-1.21744435446E+01	1.48404874415E+02	-8.37265260441E+01	1.65447206870E+02	-4.06447868104E-03	-1.51833987998E+02
7.42975333333E+07	-5.61722905058E+00	-5.50646699835E+00	-1.17071185864E+01	1.46567502560E+02	-6.58413508789E+01	7.04611841264E+01	2.51810583541E-02	-1.52664582489E+02
7.52975000000E+07	-5.54682798327E+00	-6.23283539214E+00	-1.12072489961E+01	1.44352093159E+02	-7.27284843632E+01	1.35572032779E+02	2.78440157716E-02	-1.53651507306E+02
7.62974666667E+07	-5.44078814646E+00	-7.01447998339E+00	-1.07434981524E+01	1.42264660996E+02	-6.94192441786E+01	-9.43897161437E+01	1.47912750251E-02	-1.54428330036E+02
7.72974333333E+07	-5.35860850250E+00	-7.57090724588E+00	-1.02026549734E+01	1.40370977433E+02	-6.86404549364E+01	1.01483649005E+02	2.19647659788E-02	-1.55420683513E+02
7.82974000000E+07	-5.28946443118E+00	-8.34253871488E+00	-9.79301490366E+00	1.38222776091E+02	-7.49846617850E+01	-8.68160395750E+01	2.88113540765E-03	-1.56022867873E+02
7.92973666667E+07	-5.21172164629E+00	-9.23830202410E+00	-9.27678053390E+00	1.35685825147E+02	-6.78811233853E+01	1.79464922383E+02	7.19814088611E-03	-1.56728528916E+02
8.02973333333E+07	-5.15328576351E+00	-9.97935471501E+00	-8.84573113595E+00	1.33625317647E+02	-6.86292664060E+01	-1.58532210879E+02	3.43501696886E-02	-1.57586117900E+02
8.12973000000E+07	-5.06703188755E+00	-1.06394703783E+01	-8.35714244689E+00	1.31275604493E+02	-7.05660216524E+01	1.66870012827E+02	-3.94483793068E-03	-1.58249878143E+02
8.22972666667E+07	-5.02433914184E+00	-1.12612024529E+01	-7.90466066924E+00	1.29752329707E+02	-6.52179299370E+01	7.91342941735E+00	1.87899563543E-02	-1.59188352374E+02
8.32972333333E+07	-4.94517096631E+00	-1.18473618642E+01	-7.47337726423E+00	1.27426718515E+02	-6.93954984320E+01	-1.45955043082E+02	7.78351406632E-03	-1.59973945112E+02
8.42972000000E+07	-4.87986016629E+00	-1.25607269444E+01	-6.98302382962E+00	1.24952603746E+02	-7.12266960219E+01	8.60758863783E+01	-1.02066304154E-02	-1.60799125896E+02
8.52971666667E+07	-4.83830384160E+00	-1.35283622127E+01	-6.58230893026E+00	1.22671081663E+02	-6.72368578681E+01	-3.85835801105E+01	2.08880093315E-02	-1.61737076287E+02
8.62971333333E+07	-4.75788481322E+00	-1.41727854354E+01	-6.09928286534E+00	1.20302888889E+02	-6.62278109441E+01	1.59519708858E+02	2.84570230709E-02	-1.62489033269E+02
8.72971000000E+07	-4.73232240519E+00	-1.48202618646E+01	-5.68767164051E+00	1.17934414628E+02	-6.84371356299E+01	-1.12793211577E+02	7.23534837796E-03	-1.63212522686E+02
8.82970666667E+07	-4.67967430937E+00	-1.58749878403E+01	-5.29599387682E+00	1.15357193742E+02	-6.76048916143E+01	6.94293879331E+01	5.03127037511E-03	-1.63918440805E+02
8.92970333333E+07	-4.63432065706E+00	-1.62240777385E+01	-4.86514803811E+00	1.13010408185E+02	-7.07256568306E+01	-1.30911215180E+02	-1.31243369884E-02	-1.64321629180E+02
9.02970000000E+07	-4.58486288308E+00	-1.69682394320E+01	-4.46218137527E+00	1.10478394710E+02	-7.23606219822E+01	1.59316080757E+02	-5.66383249695E-03	-1.65467438297E+02
9.12969666667E+07	-4.53511691942E+00	-1.78516564378E+01	-4.04777831064E+00	1.08352314805E+02	-7.46534787089E+01	1.23230015647E+02	-2.47220461184E-02	-1.65925362006E+02
9.22969333333E+07	-4.46362075492E+00	-1.85758642911E+01	-3.61846819365E+00	1.05912078062E+02	-7.34786952481E+01	-1.56279248111E+02	-2.80699251723E-02	-1.66809334280E+02
9.32969000000E+07	-4.47558021131E+00	-1.92895260010E+01	-3.23950032562E+00	1.03181801923E+02	-7.18316816577E+01	1.55753892457E+02	1.45666710463E-02	-1.67324940168E+02
9.42968666667E+07	-4.40017742983E+00	-1.98495409590E+01	-2.85647533099E+00	1.00662034474E+02	-7.59766587046E+01	-6.77029485931E+01	-1.69848092317E-02	-1.68281588149E+02
9.52968333333E+07	-4.38964290384E+00	-2.07568205541E+01	-2.50540239663E+00	9.81508723085E+01	-6.63875136882E+01	-6.23634387002E+01	-2.55034834374E-02	-1.68650169046E+02
9.62968000000E+07	-4.37024613637E+00	-2.14490965133E+01	-2.12902771716E+00	9.55440565413E+01	-7.53591925604E+01	-1.29943694095E+02	-9.41296668147E-03	-1.69420942987E+02
9.72967666667E+07	-4.28872313883E+00	-2.21296327601E+01	-1.76864490763E+00	9.29630708899E+01	-7.36598451341E+01	1.78190771310E+02	4.77275734630E-03	-1.70028850533E+02
9.82967333333E+07	-4.26942066247E+00	-2.29318433133E+01	-1.40454368336E+00	9.03014287723E+01	-6.97522104807E+01	1.48847624383E+02	7.11493825495E-03	-1.70848440815E+02
9.92967000000E+07	-4.25497150090E+00	-2.36797512254E+01	-1.09977386323E+00	8.77896077057E+01	-7.29445586441E+01	-1.23408965763E+02	-2.91580477572E-02	-1.71503213374E+02
1.00296666667E+08	-4.22204082469E+00	-2.43984422992E+01	-7.43316922894E-01	8.51588395209E+01	-6.89489326677E+01	1.03106899414E+02	-2.14820646775E-02	-1.72090992418E+02
1.01296633333E+08	-4.22132436315E+00	-2.48118398709E+01	-4.61044431345E-01	8.26217774094E+01	-6.52769101125E+01	-1.62058152432E+02	-1.36376950960E-02	-1.72922257695E+02
1.02296600000E+08	-4.15957367966E+00	-2.58064857780E+01	-1.18274177700E-01	7.97662023107E+01	-7.08264240115E+01	1.15184772572E+02	-2.40486812903E-02	-1.73273126397E+02
1.03296566667E+08	-4.13848121955E+00	-2.65104959356E+01	1.62412750359E-01	7.71868526169E+01	-7.68699366682E+01	1.70682316762E+02	-8.71680135201E-04	-1.74040924067E+02
1.04296533333E+08	-4.10233686157E+00	-2.73735475591E+01	4.58952055310E-01	7.47215200021E+01	-6.83351583582E+01	-1.05602022484E+02	-1.67549425567E-02	-1.74678555640E+02
1.05296500000E+08	-4.10603050470E+00	-2.80148979640E+01	7.61513798635E-01	7.22406602885E+01	-7.12372197581E+01	-5.04945923206E+01	1.68061965149E-03	-1.75329857996E+02
1.06296466667E+08	-4.08273724648E+00	-2.87810699988E+01	1.02415798180E+00	6.95848576609E+01	-6.81910411556E+01	4.54482227972E+01	-4.83631963287E-02	-1.75875000513E+02
1.07296433333E+08	-4.07076405079E+00	-2.95957579252E+01	1.30582509797E+00	6.71452261512E+01	-6.37386625275E+01	1.64705685796E+02	-3.49288912346E-02	-1.76558815703E+02
1.08296400000E+08	-4.08069392759E+00	-3.01472447309E+01	1.54701936494E+00	6.46595081326E+01	-6.57406431018E+01	1.74185210108E+02	-5.94885431466E-02	-1.76949195118E+02
1.09296366667E+08	-4.06648063681E+00	-3.11469811481E+01	1.79648283932E+00	6.17402727470E+01	-7.26923599145E+01	2.56748510472E+01	-2.01137236211E-02	-1.77564698373E+02
1.10296333333E+08	-4.01548315655E+00	-3.17127425807E+01	2.05268761021E+00	5.96563908075E+01	-6.76562460792E+01	-1.02647836104E+02	-4.50805086356E-02	-1.78297903426E+02
1.11296300000E+08	-4.03850426895E+00	-3.26067030514E+01	2.33377137101E+00	5.71636388749E+01	-7.58960869092E+01	8.48763823954E+01	-4.33077105800E-02	-1.78901420109E+02
1.12296266667E+08	-4.00600602226E+00	-3.32997876240E+01	2.54574683234E+00	5.47376315159E+01	-7.12777406907E+01	1.62641784809E+02	-8.48561955205E-02	-1.79552071875E+02
1.13296233333E+08	-4.00299815296E+00	-3.39610950067E+01	2.80360826258E+00	5.21751301122E+01	-7.58109567136E+01	1.43937804050E+02	-6.67692127364E-02	1.79962042085E+02
1.14296200000E+08	-3.99379794862E+00	-3.46031757220E+01	3.00797999026E+00	4.98905803294E+01	-7.00792847175E+01	1.62797188098E+02	-3.97216867415E-02	1.79450259985E+02
1.15296166667E+08	-4.00973916117E+00	-3.54170942216E+01	3.22477616765E+00	4.76024477390E+01	-7.31426670877E+01	8.49322103558E+01	-4.18276497334E-02	1.78918817702E+02
1.16296133333E+08	-3.98542698970E+00	-3.62851470755E+01	3.46453894359E+00	4.53059926090E+01	-7.08101247718E+01	-1.43510866869E+02	-3.71204590672E-02	1.78022854247E+02
1.17296100000E+08	-3.97201965715E+00	-3.68616914035E+01	3.66951653525E+00	4.31251193104E+01	-7.08651950997E+01	1.00467179224E+02	-2.67765636941E-02	1.77512617671E+02
