# Hz S DB R 50
! CMT, SC5090, 24087134, 25.3.3/4
! Date: 01.12.2025 18:08:33
! Data: Format (Calibration Info)
! Freq	S11:dB/Ang(F2)	S21:dB/Ang(F2)	S12:dB/Ang(F2)	S22:dB/Ang(F2)
3.00000000000E+05	-5.01116946382E+01	-1.59477019719E+02	-4.11933561893E+01	9.29785180184E-01	-4.01119917789E+01	-8.63172077905E+00	-1.21311416948E+01	-1.38010366970E-02
1.29996666667E+06	-5.64291096814E+01	-1.62587461947E+02	-4.04395654223E+01	-2.62260946504E+00	-4.05238169622E+01	2.87570330815E+00	-1.21710694014E+01	-9.88316159531E-01
2.29993333333E+06	-5.34024276341E+01	-1.54688200763E+02	-4.09445633646E+01	-5.77635220679E-01	-4.07737168133E+01	-2.00567307425E+00	-1.20710373956E+01	-2.78398861492E+00
3.29990000000E+06	-5.54219161227E+01	-1.73610153263E+02	-4.04487109801E+01	-2.50106214733E+00	-4.06500162981E+01	-1.72454728866E+00	-1.20905339998E+01	-3.47907535144E+00
4.29986666667E+06	-5.52653633093E+01	-1.52622721741E+02	-4.09044847415E+01	-2.16146388367E+00	-4.09816866232E+01	-1.76235345202E+00	-1.20959188928E+01	-5.09053906540E+00
5.29983333333E+06	-5.48780353843E+01	1.78853992055E+02	-4.06749637170E+01	-3.44847844188E+00	-4.06983092874E+01	-4.52341790097E+00	-1.20711414219E+01	-5.97818404532E+00
6.29980000000E+06	-5.67914206172E+01	1.58852839520E+02	-4.06326629862E+01	-4.00073099001E+00	-4.08209028420E+01	-3.43550628794E+00	-1.20959938893E+01	-7.00758698427E+00
7.29976666667E+06	-5.36170798542E+01	1.42803928494E+02	-4.09150402242E+01	-6.03825683825E+00	-4.08085215234E+01	-7.00867274731E+00	-1.20925696948E+01	-7.99629866686E+00
8.29973333333E+06	-5.44609063186E+01	1.78351079776E+02	-4.09380214729E+01	-5.72926883993E+00	-4.07710188108E+01	-3.47888952526E+00	-1.20962866358E+01	-9.51500280047E+00
9.29970000000E+06	-5.60573856271E+01	1.65109451260E+02	-4.06774295967E+01	-7.54031140480E+00	-4.07146115422E+01	-6.56159219625E+00	-1.20861634183E+01	-1.08069360945E+01
1.02996666667E+07	-5.61260756529E+01	1.75524731713E+02	-4.09257217566E+01	-5.38442761789E+00	-4.08016988875E+01	-5.58995011704E+00	-1.21004214120E+01	-1.17719430688E+01
1.12996333333E+07	-5.58032676512E+01	-1.69326879110E+02	-4.07409592224E+01	-7.04608216448E+00	-4.08905686233E+01	-6.89471736494E+00	-1.20447612105E+01	-1.31264309383E+01
1.22996000000E+07	-5.45112655620E+01	1.70616018796E+02	-4.07303589135E+01	-8.44975000823E+00	-4.09832559598E+01	-8.23516469129E+00	-1.21182330276E+01	-1.40246053681E+01
1.32995666667E+07	-5.55640091612E+01	1.65353067089E+02	-4.06243748166E+01	-9.00247059582E+00	-4.08629672580E+01	-8.60591256902E+00	-1.20900051321E+01	-1.51821705658E+01
1.42995333333E+07	-5.25701543088E+01	-1.49252351824E+02	-4.07154625520E+01	-8.33549183201E+00	-4.09131608680E+01	-7.82673271280E+00	-1.20837832251E+01	-1.66336730422E+01
1.52995000000E+07	-5.62201801381E+01	-1.53782333831E+02	-4.09537039386E+01	-8.62252355076E+00	-4.10354764555E+01	-8.57059872621E+00	-1.20202801691E+01	-1.76137962641E+01
1.62994666667E+07	-5.29058096958E+01	1.69288089893E+02	-4.09095107866E+01	-1.00518108647E+01	-4.07372460431E+01	-9.99893120265E+00	-1.20645353168E+01	-1.87344581922E+01
1.72994333333E+07	-5.60285613397E+01	-1.62292177493E+02	-4.08689290478E+01	-9.98001137098E+00	-4.11064256711E+01	-9.23029868632E+00	-1.20530197480E+01	-1.99878385139E+01
1.82994000000E+07	-5.46712323495E+01	1.56687371475E+02	-4.08395415575E+01	-1.29292553484E+01	-4.07300324448E+01	-1.29189319863E+01	-1.20958973711E+01	-2.10195450804E+01
1.92993666667E+07	-5.50265702787E+01	-1.76147261284E+02	-4.05099842392E+01	-1.30517586669E+01	-4.06794161598E+01	-1.11616100913E+01	-1.20585119582E+01	-2.22212042445E+01
2.02993333333E+07	-5.60827166717E+01	1.67318300696E+02	-4.06928294399E+01	-1.33390631775E+01	-4.06920096123E+01	-1.52782574298E+01	-1.20921161514E+01	-2.30359200970E+01
2.12993000000E+07	-5.52054232453E+01	1.64640796558E+02	-4.07407450221E+01	-1.42379894176E+01	-4.09013686067E+01	-1.47483764519E+01	-1.20752570944E+01	-2.44526690361E+01
2.22992666667E+07	-5.45269289643E+01	1.67420336058E+02	-4.08168334810E+01	-1.53656112392E+01	-4.06994947851E+01	-1.57679471917E+01	-1.20966324070E+01	-2.57807246752E+01
2.32992333333E+07	-5.57302394669E+01	1.73884352378E+02	-4.09497697132E+01	-1.49872961967E+01	-4.08787744181E+01	-1.45658752271E+01	-1.20726344104E+01	-2.66697233854E+01
2.42992000000E+07	-5.59475355799E+01	1.63988129778E+02	-4.07574114178E+01	-1.50479790288E+01	-4.07775612019E+01	-1.46814638936E+01	-1.20907914055E+01	-2.80198443825E+01
2.52991666667E+07	-5.53292314641E+01	1.66643990824E+02	-4.07209933451E+01	-1.73079807597E+01	-4.07877098797E+01	-1.61127661803E+01	-1.20875460057E+01	-2.90746903373E+01
2.62991333333E+07	-5.67562594789E+01	1.65393955377E+02	-4.08210546783E+01	-1.67446552326E+01	-4.10838248573E+01	-1.66292900594E+01	-1.20893334548E+01	-3.02044351494E+01
2.72991000000E+07	-5.54936431866E+01	1.63713359684E+02	-4.07702520134E+01	-1.80376313761E+01	-4.09246083386E+01	-1.75030252373E+01	-1.20750306264E+01	-3.15005148975E+01
2.82990666667E+07	-5.48726667699E+01	1.65948413002E+02	-4.08676070130E+01	-1.94349865878E+01	-4.07647805067E+01	-1.92737880489E+01	-1.20929292888E+01	-3.26860693074E+01
2.92990333333E+07	-5.44298510365E+01	1.58647930872E+02	-4.07897727841E+01	-1.88628739157E+01	-4.07721058743E+01	-1.82515626037E+01	-1.20968237623E+01	-3.35698255604E+01
3.02990000000E+07	-5.65818602368E+01	1.63074787654E+02	-4.08930430998E+01	-1.90054495221E+01	-4.07730954156E+01	-2.14253644794E+01	-1.20860831000E+01	-3.49871414746E+01
3.12989666667E+07	-5.50813015921E+01	1.54330592120E+02	-4.06039695760E+01	-2.08916876124E+01	-4.06332274098E+01	-2.06903924086E+01	-1.21295466375E+01	-3.60890650276E+01
3.22989333333E+07	-5.55621790347E+01	1.75248503111E+02	-4.08896296754E+01	-2.00404061845E+01	-4.09069583404E+01	-2.03551610393E+01	-1.21044268268E+01	-3.72664753078E+01
3.32989000000E+07	-5.51692947951E+01	1.61185693231E+02	-4.07627421977E+01	-2.10787147971E+01	-4.07139701968E+01	-2.21401386800E+01	-1.20620275595E+01	-3.83558694810E+01
3.42988666667E+07	-5.59771245846E+01	1.53540930521E+02	-4.07412798306E+01	-2.19565122780E+01	-4.10136260510E+01	-2.18323946757E+01	-1.21191458232E+01	-3.94258945744E+01
3.52988333333E+07	-5.59318603771E+01	1.62698484462E+02	-4.08179319622E+01	-2.19577060591E+01	-4.07239528931E+01	-2.28959892946E+01	-1.20767774634E+01	-4.06744998570E+01
3.62988000000E+07	-5.44143306980E+01	1.51978143142E+02	-4.06505894287E+01	-2.44776393140E+01	-4.07195015522E+01	-2.46760802373E+01	-1.21021980705E+01	-4.18561694517E+01
3.72987666667E+07	-5.52313550445E+01	1.65529853823E+02	-4.06305046149E+01	-2.46365793212E+01	-4.07647639901E+01	-2.37322317078E+01	-1.21123743019E+01	-4.31361418355E+01
3.82987333333E+07	-5.42845544388E+01	1.66813748429E+02	-4.06912859927E+01	-2.43388261741E+01	-4.09528397588E+01	-2.51758621545E+01	-1.20682588402E+01	-4.43809803524E+01
3.92987000000E+07	-5.50896802349E+01	1.59514127452E+02	-4.07820371692E+01	-2.50500994193E+01	-4.08189174751E+01	-2.57716323223E+01	-1.20971543488E+01	-4.52658709961E+01
4.02986666667E+07	-5.49128150080E+01	1.56009286242E+02	-4.07933850512E+01	-2.71183019722E+01	-4.04771067588E+01	-2.75859416308E+01	-1.21053898331E+01	-4.65760733391E+01
4.12986333333E+07	-5.60813648977E+01	1.72780051683E+02	-4.09860405175E+01	-2.66900343267E+01	-4.07518946003E+01	-2.73006855404E+01	-1.21011445131E+01	-4.76988488805E+01
4.22986000000E+07	-5.40108106663E+01	1.67215044200E+02	-4.06354415900E+01	-2.76084609604E+01	-4.07955378770E+01	-2.72054210220E+01	-1.21126749888E+01	-4.89201513538E+01
4.32985666667E+07	-5.53391019316E+01	1.55070983802E+02	-4.07662678589E+01	-2.86588844624E+01	-4.08514920776E+01	-2.77369610644E+01	-1.21406857745E+01	-4.99837581796E+01
4.42985333333E+07	-5.69144158198E+01	1.58593452277E+02	-4.08411553182E+01	-3.00396275451E+01	-4.06997485755E+01	-3.01942774270E+01	-1.21317735230E+01	-5.10964425192E+01
4.52985000000E+07	-5.66926494098E+01	1.74379777897E+02	-4.08871641891E+01	-2.96329477523E+01	-4.07199977003E+01	-2.99575172444E+01	-1.21176110914E+01	-5.24596189783E+01
4.62984666667E+07	-5.75604955015E+01	1.65968544017E+02	-4.06360270279E+01	-2.92685972878E+01	-4.07687973515E+01	-3.14395937416E+01	-1.21286347652E+01	-5.36885409748E+01
4.72984333333E+07	-5.54184430700E+01	1.69234910132E+02	-4.09980467705E+01	-3.14692245747E+01	-4.07518157143E+01	-3.00421233234E+01	-1.21338308317E+01	-5.47460187041E+01
4.82984000000E+07	-5.59072410962E+01	1.53220808196E+02	-4.08798783837E+01	-3.08148691338E+01	-4.07657214356E+01	-3.06767479778E+01	-1.21319363644E+01	-5.56642376654E+01
4.92983666667E+07	-5.44102962302E+01	1.66748294496E+02	-4.08033191768E+01	-3.14761979180E+01	-4.08715341686E+01	-3.20774970502E+01	-1.21284482562E+01	-5.69772753109E+01
5.02983333333E+07	-5.65579816097E+01	1.68101425240E+02	-4.09243067277E+01	-3.23656630443E+01	-4.09867366045E+01	-3.42253596349E+01	-1.21016031852E+01	-5.81929682299E+01
5.12983000000E+07	-5.56643563886E+01	1.69379728324E+02	-4.07488216023E+01	-3.35392445767E+01	-4.06768067634E+01	-3.42815519861E+01	-1.21323532285E+01	-5.95803917594E+01
5.22982666667E+07	-5.46694486980E+01	1.73111101602E+02	-4.08985293481E+01	-3.39675050809E+01	-4.09029738773E+01	-3.29740133885E+01	-1.21117163689E+01	-6.05291796158E+01
5.32982333333E+07	-5.67850746752E+01	1.79307363717E+02	-4.07773327433E+01	-3.47667022851E+01	-4.07956358500E+01	-3.47768354161E+01	-1.20956255209E+01	-6.16070086939E+01
5.42982000000E+07	-5.61903182916E+01	1.66746234928E+02	-4.06841520604E+01	-3.49777405543E+01	-4.07860063079E+01	-3.58779394215E+01	-1.21247448668E+01	-6.27316265750E+01
5.52981666667E+07	-5.48628907728E+01	1.59995492264E+02	-4.09374034277E+01	-3.68241853580E+01	-4.07636595773E+01	-3.66894774545E+01	-1.21195577389E+01	-6.41507409722E+01
5.62981333333E+07	-5.75798166541E+01	1.51698274664E+02	-4.10666040678E+01	-3.61742545381E+01	-4.07192507989E+01	-3.66865731724E+01	-1.21376901498E+01	-6.54811772286E+01
5.72981000000E+07	-5.60321555594E+01	1.59985800149E+02	-4.10620484839E+01	-3.74729734557E+01	-4.08453266662E+01	-3.77161088052E+01	-1.21398049545E+01	-6.64575738364E+01
5.82980666667E+07	-5.55315794809E+01	1.65632104296E+02	-4.07391038599E+01	-3.64137245268E+01	-4.08838934363E+01	-3.70626819523E+01	-1.21421588385E+01	-6.75236315211E+01
5.92980333333E+07	-5.62026194215E+01	1.52299167626E+02	-4.08903145048E+01	-3.85448380622E+01	-4.08927225189E+01	-3.80924132039E+01	-1.21074077192E+01	-6.88161062142E+01
6.02980000000E+07	-5.62630823523E+01	1.56446669128E+02	-4.07304960649E+01	-3.96766319739E+01	-4.06956272723E+01	-3.97887414475E+01	-1.21290661278E+01	-7.00165117566E+01
6.12979666667E+07	-5.66827645512E+01	1.69389368761E+02	-4.07109341051E+01	-4.06093793269E+01	-4.06800446599E+01	-4.05090047336E+01	-1.21241132358E+01	-7.09785833365E+01
6.22979333333E+07	-5.61451543865E+01	1.79400103714E+02	-4.08944722081E+01	-4.05023976264E+01	-4.08897061508E+01	-3.94469013309E+01	-1.21261341709E+01	-7.22454473467E+01
6.32979000000E+07	-5.74664238768E+01	1.61720873186E+02	-4.08285190568E+01	-4.13856187441E+01	-4.10627725212E+01	-4.12554726664E+01	-1.21241626510E+01	-7.33139071282E+01
6.42978666667E+07	-5.67129696951E+01	1.67750273377E+02	-4.08035552583E+01	-4.24073024157E+01	-4.07362629099E+01	-4.16667941269E+01	-1.21738959378E+01	-7.44717366428E+01
6.52978333333E+07	-5.62267474978E+01	1.59004850716E+02	-4.10487983436E+01	-4.31779463558E+01	-4.08845957568E+01	-4.15644125951E+01	-1.21227406635E+01	-7.58196141999E+01
6.62978000000E+07	-5.75850329225E+01	1.74203420649E+02	-4.09619504857E+01	-4.17984587562E+01	-4.07640409809E+01	-4.31970169968E+01	-1.21122045022E+01	-7.70763665447E+01
6.72977666667E+07	-5.71694356211E+01	1.67542850819E+02	-4.08021462264E+01	-4.49787751446E+01	-4.09147305817E+01	-4.45612551833E+01	-1.21616433158E+01	-7.80866330499E+01
6.82977333333E+07	-5.57497684067E+01	1.62003055747E+02	-4.07311214764E+01	-4.42535025228E+01	-4.07522704719E+01	-4.46641540101E+01	-1.21461784759E+01	-7.93086266914E+01
6.92977000000E+07	-5.78395781662E+01	1.50536685341E+02	-4.08094672995E+01	-4.41112764572E+01	-4.08939913632E+01	-4.59062061816E+01	-1.21690622304E+01	-8.02838008772E+01
7.02976666667E+07	-5.58931998433E+01	1.68889145315E+02	-4.09931314599E+01	-4.56448488281E+01	-4.07420237552E+01	-4.50589901977E+01	-1.21484382594E+01	-8.16126653161E+01
7.12976333333E+07	-5.78089026779E+01	1.54300075655E+02	-4.06961879594E+01	-4.67665225867E+01	-4.08039977158E+01	-4.55477916418E+01	-1.21799879015E+01	-8.28780133809E+01
7.22976000000E+07	-5.63345882488E+01	1.63186095498E+02	-4.08129771667E+01	-4.76637980360E+01	-4.10205215063E+01	-4.60992841261E+01	-1.21453299294E+01	-8.39955151683E+01
7.32975666667E+07	-5.73607481137E+01	1.76393162674E+02	-4.10852745632E+01	-4.79884928392E+01	-4.08513077208E+01	-4.65951427624E+01	-1.21566538449E+01	-8.49987492458E+01
7.42975333333E+07	-5.76535146384E+01	1.52371663364E+02	-4.07730197531E+01	-4.75339521230E+01	-4.08450994325E+01	-4.78466057039E+01	-1.21695477997E+01	-8.64078440729E+01
7.52975000000E+07	-5.89843565341E+01	1.59395006538E+02	-4.07873417874E+01	-4.92959677141E+01	-4.09346365180E+01	-4.80732356836E+01	-1.21595058180E+01	-8.73523636982E+01
7.62974666667E+07	-5.89318885432E+01	1.53251884988E+02	-4.09587965878E+01	-5.04090531153E+01	-4.05988083798E+01	-4.98603003386E+01	-1.21748573815E+01	-8.88564654072E+01
7.72974333333E+07	-5.60738032697E+01	1.69263899443E+02	-4.06513678009E+01	-4.96673823463E+01	-4.08895043720E+01	-4.99969396829E+01	-1.21815411737E+01	-8.98246166905E+01
7.82974000000E+07	-5.67463830414E+01	1.62195519295E+02	-4.08300157291E+01	-5.04378311832E+01	-4.08948306596E+01	-5.09611203659E+01	-1.21766079512E+01	-9.11702141313E+01
7.92973666667E+07	-5.85742853420E+01	1.42470263304E+02	-4.08576927448E+01	-5.21951284138E+01	-4.09021403819E+01	-5.24468612379E+01	-1.21518931379E+01	-9.21560877075E+01
8.02973333333E+07	-5.68135984006E+01	1.25382440370E+02	-4.08473024294E+01	-5.16465161466E+01	-4.07322059654E+01	-5.29795040399E+01	-1.21897731748E+01	-9.33259030283E+01
8.12973000000E+07	-5.76560461309E+01	1.42296907473E+02	-4.08608120435E+01	-5.28808118693E+01	-4.09717999423E+01	-5.31305386915E+01	-1.21667825949E+01	-9.44002925555E+01
8.22972666667E+07	-5.82754143993E+01	1.61951739489E+02	-4.08601053386E+01	-5.35673080409E+01	-4.09455651777E+01	-5.30409038488E+01	-1.21712443918E+01	-9.58023475856E+01
8.32972333333E+07	-5.40447320438E+01	1.57207375172E+02	-4.08024622758E+01	-5.31431872312E+01	-4.05182354214E+01	-5.37960805524E+01	-1.21615773319E+01	-9.69054249123E+01
8.42972000000E+07	-5.69015531639E+01	1.55466362525E+02	-4.09010525713E+01	-5.49425093486E+01	-4.09026979182E+01	-5.47933592630E+01	-1.21694856112E+01	-9.83320007832E+01
8.52971666667E+07	-5.96183491127E+01	1.67261413713E+02	-4.08180759930E+01	-5.59585719465E+01	-4.05600182264E+01	-5.46022738634E+01	-1.21802713078E+01	-9.95272080154E+01
8.62971333333E+07	-5.82576245224E+01	1.69360799975E+02	-4.08391374761E+01	-5.55878456122E+01	-4.10534877479E+01	-5.65460626854E+01	-1.21696999180E+01	-1.00269883690E+02
8.72971000000E+07	-5.77315736571E+01	1.50036090617E+02	-4.08642063774E+01	-5.69796545577E+01	-4.07713398101E+01	-5.60747967446E+01	-1.21821329075E+01	-1.01680899260E+02
8.82970666667E+07	-5.73436547553E+01	1.46986476620E+02	-4.09580549471E+01	-5.68130916586E+01	-4.06132371172E+01	-5.80435922793E+01	-1.21722354832E+01	-1.02751329083E+02
8.92970333333E+07	-5.74672772930E+01	1.52474202652E+02	-4.08419831709E+01	-5.80982756470E+01	-4.08713186002E+01	-5.74017896262E+01	-1.21919342681E+01	-1.03706787327E+02
9.02970000000E+07	-5.84171430542E+01	1.59135654909E+02	-4.06813664655E+01	-5.87343284787E+01	-4.07984675931E+01	-5.87659334313E+01	-1.21890193685E+01	-1.05212637624E+02
9.12969666667E+07	-5.65314806037E+01	1.45104019293E+02	-4.09952524568E+01	-5.93472794950E+01	-4.08669892207E+01	-6.00052313234E+01	-1.21864536706E+01	-1.06376607585E+02
9.22969333333E+07	-5.92760162041E+01	1.51903298105E+02	-4.09169201948E+01	-5.83307449237E+01	-4.07393043926E+01	-5.92867655579E+01	-1.22259836745E+01	-1.07611893786E+02
9.32969000000E+07	-5.65682688301E+01	1.43300598762E+02	-4.10069167322E+01	-6.03497995190E+01	-4.08657117436E+01	-6.03237674716E+01	-1.21792114411E+01	-1.08830738239E+02
9.42968666667E+07	-5.87236695581E+01	1.43411069999E+02	-4.08680691971E+01	-6.23128151150E+01	-4.07354423404E+01	-6.01191206758E+01	-1.21745318073E+01	-1.10030263908E+02
9.52968333333E+07	-5.93209560816E+01	1.43726673392E+02	-4.08329218420E+01	-6.03051786544E+01	-4.07989010071E+01	-6.20862797039E+01	-1.21908753116E+01	-1.11274603556E+02
9.62968000000E+07	-5.69138304374E+01	1.54778954623E+02	-4.09212131051E+01	-6.17860852696E+01	-4.09330273864E+01	-6.29307975364E+01	-1.21808642991E+01	-1.12568156602E+02
9.72967666667E+07	-5.78545042530E+01	1.46334850967E+02	-4.08172974322E+01	-6.22346236517E+01	-4.11654889169E+01	-6.38476234054E+01	-1.22047334528E+01	-1.13390936547E+02
9.82967333333E+07	-5.52857794806E+01	1.54512704302E+02	-4.09424225212E+01	-6.35987537104E+01	-4.07635282833E+01	-6.31065151932E+01	-1.21900446533E+01	-1.14632192961E+02
9.92967000000E+07	-5.73106725709E+01	1.59994696928E+02	-4.10512659332E+01	-6.48665356260E+01	-4.07840363531E+01	-6.31056913822E+01	-1.22033933106E+01	-1.15846663901E+02
1.00296666667E+08	-5.66417644468E+01	1.42075056788E+02	-4.07980161828E+01	-6.51474441935E+01	-4.07260968066E+01	-6.60397680956E+01	-1.22033359983E+01	-1.16959587905E+02
1.01296633333E+08	-5.77984189363E+01	1.48628558378E+02	-4.09904252226E+01	-6.76420308850E+01	-4.10561302380E+01	-6.53046807195E+01	-1.21894581298E+01	-1.18149443085E+02
1.02296600000E+08	-5.90926847746E+01	1.59644390945E+02	-4.07213344350E+01	-6.66292958982E+01	-4.08870520465E+01	-6.72663349018E+01	-1.22303151969E+01	-1.19627234948E+02
1.03296566667E+08	-5.81318785066E+01	1.56009580019E+02	-4.07741737778E+01	-6.71701990769E+01	-4.09849844365E+01	-6.74477859344E+01	-1.21783962958E+01	-1.20699265526E+02
1.04296533333E+08	-5.80696191394E+01	1.48929076743E+02	-4.08453134696E+01	-6.67580574700E+01	-4.08901469424E+01	-6.72149927432E+01	-1.21874272891E+01	-1.21802231538E+02
1.05296500000E+08	-5.55310422343E+01	1.50261321571E+02	-4.08683708723E+01	-6.67217121311E+01	-4.10192167600E+01	-6.75994615513E+01	-1.22058370478E+01	-1.22897386292E+02
1.06296466667E+08	-5.70358366896E+01	1.40329354342E+02	-4.06792200191E+01	-6.92220396357E+01	-4.06611703088E+01	-6.88359518567E+01	-1.21932140112E+01	-1.24065061874E+02
1.07296433333E+08	-5.78925386733E+01	1.56999161563E+02	-4.05575425036E+01	-6.98636148662E+01	-4.08177016507E+01	-6.98357634397E+01	-1.22012721670E+01	-1.25572132639E+02
1.08296400000E+08	-5.50976316540E+01	1.52446509878E+02	-4.09095876019E+01	-7.00118283901E+01	-4.08753767440E+01	-6.87339536688E+01	-1.22437491702E+01	-1.26701309343E+02
1.09296366667E+08	-5.63732965538E+01	1.57348704144E+02	-4.07520339164E+01	-7.02081123603E+01	-4.07979412809E+01	-7.06361044063E+01	-1.22313987532E+01	-1.27718353272E+02
1.10296333333E+08	-5.67218050449E+01	1.53100259094E+02	-4.09098968961E+01	-7.19724956180E+01	-4.07873851112E+01	-7.14189646182E+01	-1.21979182902E+01	-1.29120649299E+02
1.11296300000E+08	-5.61896187731E+01	1.43275743439E+02	-4.06712083006E+01	-7.17038090972E+01	-4.07637090328E+01	-7.32418777177E+01	-1.21920869011E+01	-1.29948841195E+02
1.12296266667E+08	-5.50885000033E+01	1.41171025157E+02	-4.09932174269E+01	-7.15516704048E+01	-4.07783716882E+01	-7.33276992156E+01	-1.21758242097E+01	-1.30949799029E+02
1.13296233333E+08	-5.70457300128E+01	1.37812049899E+02	-4.09791001782E+01	-7.42132910882E+01	-4.08967322150E+01	-7.27829002376E+01	-1.21835672197E+01	-1.32613940258E+02
1.14296200000E+08	-5.88417193871E+01	1.35247368242E+02	-4.08496417987E+01	-7.39210388323E+01	-4.07773477296E+01	-7.31309337732E+01	-1.22143996532E+01	-1.33680561540E+02
1.15296166667E+08	-5.56421288023E+01	1.51532998931E+02	-4.09698895884E+01	-7.58075763886E+01	-4.11105092403E+01	-7.30959758546E+01	-1.21509825979E+01	-1.34677703996E+02
1.16296133333E+08	-5.89849117542E+01	1.42628196762E+02	-4.09187324393E+01	-7.62956368989E+01	-4.08092224123E+01	-7.51856952167E+01	-1.21837799197E+01	-1.36005744867E+02
