# Hz S DB R 50
! CMT, SC5090, 24087134, 25.3.3/4
! Date: 15.11.2025 14:30:15
! Data: Format (Calibration Info)
! Freq	S11:dB/Ang(F2)	S21:dB/Ang(F2)	S12:dB/Ang(F2)	S22:dB/Ang(F2)
3.00000000000E+05	-1.02598244949E-02	-1.02074200887E+00	-6.04242821990E+01	-2.79995773671E+01	-5.13797193895E+01	-6.52338538835E+00	-4.33443838723E+01	-1.12644798171E+02
1.29996666667E+06	-1.08668285022E-01	-4.75432800303E+00	-6.31497649785E+01	1.40797945026E+01	-7.04919727460E+01	-6.06232704068E+01	-4.03510497345E+01	-8.79854562962E+01
2.29993333333E+06	-2.10172717373E-01	-7.96167180592E+00	-6.64354384301E+01	-1.26945416765E+01	-6.21181291024E+01	5.86356859836E+01	-3.64325580411E+01	-9.59325023435E+01
3.29990000000E+06	-3.69165991554E-01	-1.05943416211E+01	-7.11074680747E+01	1.23077436679E+02	-7.33877515925E+01	1.79516317521E+02	-3.27828597553E+01	-9.18973880861E+01
4.29986666667E+06	-5.46410854088E-01	-1.31417289010E+01	-6.12855702677E+01	1.11227669136E+02	-6.56820895032E+01	-1.17580392769E+02	-3.08175561614E+01	-9.30554410742E+01
5.29983333333E+06	-7.43062611437E-01	-1.51629429185E+01	-6.87684127298E+01	7.69256137497E+01	-6.99211149398E+01	1.59246566715E+02	-2.90249002135E+01	-9.44902276138E+01
6.29980000000E+06	-8.98276356607E-01	-1.71236793143E+01	-6.67025134131E+01	-1.48174561633E+02	-6.73215185076E+01	1.31886166294E+02	-2.72110199429E+01	-9.41176592045E+01
7.29976666667E+06	-1.06623536406E+00	-1.89148774047E+01	-7.28569231644E+01	9.67191857509E+01	-6.32740019308E+01	-1.41587448919E+02	-2.61489421940E+01	-9.59811893893E+01
8.29973333333E+06	-1.10509745691E+00	-2.07151463447E+01	-6.63587425292E+01	-1.56484540447E+02	-7.09213728657E+01	7.81058774309E+01	-2.49843108657E+01	-9.44983155450E+01
9.29970000000E+06	-1.25742709986E+00	-2.26058842379E+01	-7.67417180269E+01	1.06487988469E+02	-8.01385390645E+01	-1.13296110414E+02	-2.39017478500E+01	-9.57900799251E+01
1.02996666667E+07	-1.35804076977E+00	-2.43049237968E+01	-7.40406046857E+01	-2.90908315203E+01	-6.63057756388E+01	-1.32730298118E+02	-2.30452114603E+01	-9.54120525520E+01
1.12996333333E+07	-1.44668949586E+00	-2.60085134916E+01	-6.33333355138E+01	-1.45701503980E+02	-7.53227367874E+01	5.93190317801E+01	-2.22602151123E+01	-9.59658583789E+01
1.22996000000E+07	-1.55657427248E+00	-2.78765493581E+01	-6.46037142010E+01	1.14071053794E+02	-6.56712953101E+01	-1.46631382382E+02	-2.15317722966E+01	-9.74188052517E+01
1.32995666667E+07	-1.63689951116E+00	-2.99468984491E+01	-7.64468587774E+01	1.54873502478E+02	-7.03665331738E+01	5.61049551129E+01	-2.08270899069E+01	-9.80252140543E+01
1.42995333333E+07	-1.75804946586E+00	-3.13753342397E+01	-6.10744355757E+01	-1.71570292268E+01	-6.49072970965E+01	4.29077466314E+01	-2.01764557611E+01	-9.69004860224E+01
1.52995000000E+07	-1.79954078159E+00	-3.32107170672E+01	-6.95636814464E+01	-3.46532244036E+00	-6.93230329857E+01	1.27579765398E+01	-1.95750004948E+01	-9.70200782383E+01
1.62994666667E+07	-1.94556571230E+00	-3.51248661443E+01	-6.48136047436E+01	1.04715305879E+02	-6.77868499295E+01	1.54490098782E+01	-1.90882201975E+01	-9.88838927087E+01
1.72994333333E+07	-2.03970400997E+00	-3.68855842814E+01	-6.27407924638E+01	-4.19193977891E+01	-7.14063840511E+01	-5.96837817516E+01	-1.85786392705E+01	-9.83517122734E+01
1.82994000000E+07	-2.17281671202E+00	-3.88874351547E+01	-7.76827921532E+01	1.00831927784E+02	-7.78424477197E+01	-1.26351727557E+01	-1.81131388899E+01	-1.00340214936E+02
1.92993666667E+07	-2.27891316948E+00	-4.04220452620E+01	-6.98331313689E+01	-1.12831652470E+02	-7.10981762585E+01	-8.26556878935E+01	-1.75929276230E+01	-1.00118432570E+02
2.02993333333E+07	-2.41310560852E+00	-4.25433506164E+01	-7.41403967530E+01	-1.70785526922E+02	-7.35965744244E+01	1.16854633469E+02	-1.72548839241E+01	-1.00689677323E+02
2.12993000000E+07	-2.55452991938E+00	-4.44736808242E+01	-7.63569442241E+01	-1.75570000802E+02	-7.18157084647E+01	-4.70910222755E+01	-1.68216937654E+01	-1.01582853133E+02
2.22992666667E+07	-2.65437480719E+00	-4.62796868806E+01	-7.08998410305E+01	-5.47614901343E+01	-6.50966527834E+01	-4.54867232353E+01	-1.64352227213E+01	-1.02029350787E+02
2.32992333333E+07	-2.79358166647E+00	-4.80387313069E+01	-7.29852659928E+01	-2.89739512707E+01	-6.73513616687E+01	1.04461123846E+02	-1.60120505902E+01	-1.02331324142E+02
2.42992000000E+07	-2.93586400290E+00	-4.99435513262E+01	-7.32926597903E+01	1.24553040768E+02	-6.75848296247E+01	-1.34301624502E+02	-1.56653041038E+01	-1.03217160027E+02
2.52991666667E+07	-3.05864359705E+00	-5.17702168633E+01	-9.06719871120E+01	-1.35910945313E+02	-7.70084657288E+01	-1.04393785490E+02	-1.53352269866E+01	-1.03419114375E+02
2.62991333333E+07	-3.22849342047E+00	-5.35284955472E+01	-6.13801264505E+01	-1.22351921440E+02	-7.57179170272E+01	9.33048801838E+01	-1.49918658226E+01	-1.03934090336E+02
2.72991000000E+07	-3.35547803889E+00	-5.52860859307E+01	-6.30184548160E+01	-6.28455930436E+00	-7.69754790576E+01	-4.52838505377E+01	-1.46673309035E+01	-1.04787096066E+02
2.82990666667E+07	-3.50942299310E+00	-5.72960443388E+01	-6.28997753138E+01	1.34274573660E+02	-6.55278013226E+01	-1.44516126787E+02	-1.44005544917E+01	-1.05203092179E+02
2.92990333333E+07	-3.70475177194E+00	-5.89347050676E+01	-7.11199404824E+01	-1.62061597314E-01	-6.90426739627E+01	-7.38562651676E+01	-1.40918834792E+01	-1.05880488369E+02
3.02990000000E+07	-3.86813588827E+00	-6.08742669360E+01	-8.15879189248E+01	-1.60083468815E+02	-6.76087025850E+01	-6.52481581053E+01	-1.38113884196E+01	-1.06256738157E+02
3.12989666667E+07	-4.01948167952E+00	-6.23635665457E+01	-6.70459812512E+01	4.92380169999E+01	-7.01043381909E+01	1.31592809320E+02	-1.35699564646E+01	-1.06748918639E+02
3.22989333333E+07	-4.22564467887E+00	-6.42280509475E+01	-6.98440341414E+01	-1.31228600630E+02	-7.58101812936E+01	-1.01162637703E+01	-1.32975550150E+01	-1.06946449909E+02
3.32989000000E+07	-4.38837739043E+00	-6.60478102135E+01	-7.41798464564E+01	-7.26164533842E+01	-7.10350563470E+01	-1.70352125183E+02	-1.30189803049E+01	-1.07705935241E+02
3.42988666667E+07	-4.58706724544E+00	-6.79756761132E+01	-6.55827947681E+01	-5.71563946786E+01	-7.30162492238E+01	-1.80958670744E+01	-1.28065151324E+01	-1.08511013147E+02
3.52988333333E+07	-4.83484176034E+00	-6.93357209126E+01	-6.29626776980E+01	-8.12961426813E+00	-6.44934751246E+01	8.68574296409E+01	-1.25275941703E+01	-1.08701756601E+02
3.62988000000E+07	-5.01816424726E+00	-7.13199370039E+01	-6.16280410629E+01	8.44083394980E+01	-6.69530074194E+01	1.04671583773E+02	-1.22650649305E+01	-1.09743437452E+02
3.72987666667E+07	-5.19619755200E+00	-7.32280587870E+01	-6.56289556603E+01	-1.19526411197E+01	-6.69013353675E+01	-6.39268061677E+01	-1.20575825968E+01	-1.10065610065E+02
3.82987333333E+07	-5.40625968310E+00	-7.48193924238E+01	-5.90382808070E+01	-5.46997007409E+01	-8.93295461706E+01	-8.46758974182E+00	-1.18971094350E+01	-1.10186575577E+02
3.92987000000E+07	-5.67704373628E+00	-7.64490449352E+01	-6.23056193184E+01	-1.43007858813E+02	-7.85926791912E+01	3.39205652458E+01	-1.16593280776E+01	-1.10710622512E+02
4.02986666667E+07	-5.87475914635E+00	-7.81878073845E+01	-6.84880925545E+01	2.84710811389E+01	-6.91205688185E+01	8.51685264903E+01	-1.14287902387E+01	-1.11351164983E+02
4.12986333333E+07	-6.13780137215E+00	-8.00876032780E+01	-6.41911759148E+01	-1.75811312263E+01	-8.24276391441E+01	5.95065907954E+01	-1.12280332381E+01	-1.12179328309E+02
4.22986000000E+07	-6.36696392518E+00	-8.18199967950E+01	-5.88246858134E+01	-2.65551303165E+01	-7.42419726613E+01	-8.82108720897E+01	-1.10390170552E+01	-1.12302173715E+02
4.32985666667E+07	-6.64842410705E+00	-8.34798804041E+01	-6.23293674903E+01	-6.66406781182E+01	-6.90346420221E+01	3.68291683885E+01	-1.08963223349E+01	-1.13014240978E+02
4.42985333333E+07	-6.87269792687E+00	-8.51522792890E+01	-5.91521072656E+01	-9.09691712395E+01	-6.77669816417E+01	-1.76443052810E+02	-1.06758442175E+01	-1.12953518077E+02
4.52985000000E+07	-7.14807329832E+00	-8.67983136816E+01	-6.82900280710E+01	-1.14395320987E+02	-7.63215766257E+01	-9.12756729625E+01	-1.05148717146E+01	-1.13831432660E+02
4.62984666667E+07	-7.42604040807E+00	-8.83616646578E+01	-6.13804834888E+01	-6.98730881962E+01	-7.08496448836E+01	5.84099965789E+01	-1.03450370365E+01	-1.14428478128E+02
4.72984333333E+07	-7.69344004719E+00	-9.02649075353E+01	-6.04910571921E+01	-9.16047373099E+01	-7.24301665006E+01	-1.70090066808E+02	-1.01583857190E+01	-1.14676625135E+02
4.82984000000E+07	-8.05387387463E+00	-9.18599779850E+01	-6.39684106953E+01	-1.23972102748E+02	-6.80556012231E+01	1.50184057019E+01	-9.92468533083E+00	-1.15364607651E+02
4.92983666667E+07	-8.29635236812E+00	-9.34445837819E+01	-6.60791218260E+01	-6.16651923455E+01	-7.03157664212E+01	4.04163132866E+01	-9.78814505888E+00	-1.16041132593E+02
5.02983333333E+07	-8.65536366887E+00	-9.49107051643E+01	-6.04545570495E+01	-8.31783822292E+01	-6.76144170263E+01	-1.44649319909E+02	-9.66394095785E+00	-1.16089106032E+02
5.12983000000E+07	-9.01252444171E+00	-9.65998862218E+01	-5.90451498666E+01	-8.74842184291E+01	-8.90550255851E+01	4.40469594187E+01	-9.48622784857E+00	-1.16634903210E+02
5.22982666667E+07	-9.36581728122E+00	-9.83542353536E+01	-6.10895069719E+01	-6.69561290993E+01	-6.69296658225E+01	-7.69641601036E+00	-9.33348294253E+00	-1.17368777254E+02
5.32982333333E+07	-9.70832853119E+00	-1.00005239191E+02	-6.09603261908E+01	-7.64846813235E+01	-6.99479768580E+01	1.23631492583E+02	-9.15021566996E+00	-1.17659616238E+02
5.42982000000E+07	-1.00791376501E+01	-1.01870383356E+02	-5.26397326901E+01	-7.56125198158E+01	-7.72916372990E+01	1.60559708605E+02	-9.04856443687E+00	-1.18440102019E+02
5.52981666667E+07	-1.04440397377E+01	-1.03241905987E+02	-5.08365693342E+01	-7.80103878694E+01	-8.31352419595E+01	1.35076506939E+02	-8.87069419886E+00	-1.18611323545E+02
5.62981333333E+07	-1.07964788087E+01	-1.05108354174E+02	-4.94124651732E+01	-7.55821158089E+01	-7.46318542024E+01	-1.58872200948E+02	-8.74544487902E+00	-1.19021286194E+02
5.72981000000E+07	-1.12700390987E+01	-1.06932366915E+02	-5.14710397593E+01	-8.36586591756E+01	-7.87775874416E+01	9.63792854774E+01	-8.63849494435E+00	-1.19698659181E+02
5.82980666667E+07	-1.17215510421E+01	-1.08480351980E+02	-5.85481458757E+01	-1.07635650449E+02	-7.39851709813E+01	-6.81872278639E+01	-8.46763859299E+00	-1.20031468887E+02
5.92980333333E+07	-1.22351798531E+01	-1.09925962510E+02	-5.26195072540E+01	-1.04533146884E+02	-7.53143936878E+01	-1.78292156270E+02	-8.37673344338E+00	-1.20781049138E+02
6.02980000000E+07	-1.26595199690E+01	-1.11553192283E+02	-4.81886126110E+01	-8.45695343761E+01	-7.06299507803E+01	8.70974815800E+01	-8.28624828070E+00	-1.21566151204E+02
6.12979666667E+07	-1.31783809186E+01	-1.13599792564E+02	-4.88672587231E+01	-1.05767346258E+02	-6.73717260972E+01	-7.00017284967E+01	-8.13741750607E+00	-1.21505244550E+02
6.22979333333E+07	-1.36480794881E+01	-1.14957339368E+02	-4.78499824099E+01	-1.12565728508E+02	-7.59068045492E+01	-1.22972019286E+02	-8.01460820723E+00	-1.21792005600E+02
6.32979000000E+07	-1.41925207317E+01	-1.16530459264E+02	-4.90259276593E+01	-1.12945132264E+02	-7.75762084193E+01	1.53265075899E+02	-7.87377345247E+00	-1.22447844634E+02
6.42978666667E+07	-1.48014909581E+01	-1.18848729352E+02	-4.38772492172E+01	-1.03971073796E+02	-6.75723806095E+01	1.65782634052E+02	-7.75250652266E+00	-1.22995705287E+02
6.52978333333E+07	-1.54068655699E+01	-1.20323447354E+02	-4.56225400481E+01	-1.15362822940E+02	-6.84597226327E+01	7.77701039309E+01	-7.68873111908E+00	-1.23470273564E+02
6.62978000000E+07	-1.60674972155E+01	-1.22345487989E+02	-4.41724811758E+01	-1.01942009487E+02	-7.12907016437E+01	1.43093856499E+02	-7.57538508328E+00	-1.23955822028E+02
6.72977666667E+07	-1.68462780818E+01	-1.24006620310E+02	-4.36795462681E+01	-1.08371792168E+02	-7.17338057651E+01	-4.37916762068E+01	-7.49467915436E+00	-1.24438735543E+02
6.82977333333E+07	-1.75813979563E+01	-1.25966205754E+02	-4.28827163438E+01	-1.20731215608E+02	-8.58664237541E+01	-1.10708117905E+02	-7.33227849178E+00	-1.24687977029E+02
6.92977000000E+07	-1.84134991019E+01	-1.27557793913E+02	-4.11382964174E+01	-1.15007794382E+02	-7.53719835583E+01	1.23763592403E+02	-7.24791584548E+00	-1.25446160484E+02
7.02976666667E+07	-1.93571424278E+01	-1.29934781136E+02	-4.09658532553E+01	-1.23775256288E+02	-6.82925389989E+01	1.20314688283E+02	-7.14610934157E+00	-1.25917576980E+02
7.12976333333E+07	-2.03305443052E+01	-1.32042139168E+02	-3.95419262581E+01	-1.32139697895E+02	-7.09078461823E+01	-1.41881134440E+02	-7.05176791938E+00	-1.26085741846E+02
7.22976000000E+07	-2.14470712561E+01	-1.34262538001E+02	-3.84913331948E+01	-1.30113542164E+02	-6.69113214342E+01	-1.76494498820E+02	-6.95418446102E+00	-1.26769412052E+02
7.32975666667E+07	-2.27202340775E+01	-1.37387269572E+02	-3.78986197167E+01	-1.32849626562E+02	-7.31214743927E+01	1.52257839359E+02	-6.88483040046E+00	-1.27004285830E+02
7.42975333333E+07	-2.40860631298E+01	-1.40257584017E+02	-3.72087004750E+01	-1.36629745044E+02	-6.75001896471E+01	1.35387206731E+02	-6.72416406074E+00	-1.27553081869E+02
7.52975000000E+07	-2.57420667263E+01	-1.43447936700E+02	-3.66347792691E+01	-1.37729349900E+02	-7.20292488182E+01	-3.94232866888E+01	-6.64263858819E+00	-1.28035298828E+02
7.62974666667E+07	-2.79414687371E+01	-1.48801721578E+02	-3.63023338445E+01	-1.35182013062E+02	-7.21683458584E+01	-1.39189422640E+01	-6.57073191875E+00	-1.28320897907E+02
7.72974333333E+07	-3.07174448123E+01	-1.57569165506E+02	-3.52719055679E+01	-1.40376189204E+02	-6.20600358735E+01	1.24133992548E+02	-6.47682796880E+00	-1.28995119735E+02
7.82974000000E+07	-3.42708111831E+01	-1.68074926032E+02	-3.46490221174E+01	-1.43501279913E+02	-7.69263551991E+01	-1.35456066792E+02	-6.39464064282E+00	-1.29222062799E+02
7.92973666667E+07	-3.78156623429E+01	1.62021728035E+02	-3.36482024491E+01	-1.45301521186E+02	-7.61373376821E+01	-1.37409237050E+02	-6.29414677892E+00	-1.29769863898E+02
8.02973333333E+07	-4.12003292554E+01	1.19389823144E+02	-3.27734069098E+01	-1.49309595204E+02	-7.82090756593E+01	1.24823861370E+02	-6.18117025464E+00	-1.30322980432E+02
8.12973000000E+07	-3.60798972513E+01	7.45513783407E+01	-3.20034134651E+01	-1.53570411877E+02	-7.95978437127E+01	-1.34748175987E+02	-6.14980726991E+00	-1.30740266425E+02
8.22972666667E+07	-3.19914854950E+01	6.08934946497E+01	-3.14730145864E+01	-1.54457854914E+02	-6.85167383804E+01	1.46411486455E+02	-6.01883714803E+00	-1.31115928913E+02
8.32972333333E+07	-2.91070601774E+01	5.27994934022E+01	-3.05552053423E+01	-1.57684435687E+02	-6.74324762419E+01	3.00666256368E+01	-6.00218892777E+00	-1.31577239995E+02
8.42972000000E+07	-2.70634836317E+01	4.91688546606E+01	-2.99929027341E+01	-1.60121788069E+02	-6.51962189111E+01	-1.02697346278E+02	-5.92757766386E+00	-1.32099693349E+02
8.52971666667E+07	-2.52561493912E+01	4.52412839585E+01	-2.97907963333E+01	-1.63969060601E+02	-7.59760642918E+01	-5.14238686474E+01	-5.82182146389E+00	-1.32652486512E+02
8.62971333333E+07	-2.39321400384E+01	4.23068690793E+01	-2.90338896803E+01	-1.65746305964E+02	-7.71272952174E+01	-1.28688845239E+02	-5.74113911988E+00	-1.33284254727E+02
8.72971000000E+07	-2.25890421131E+01	4.06187094375E+01	-2.83764045046E+01	-1.67180156070E+02	-7.14682726050E+01	1.42188281562E+02	-5.66352431143E+00	-1.33846607266E+02
8.82970666667E+07	-2.15348885526E+01	3.85850891995E+01	-2.74578577069E+01	-1.69863538060E+02	-7.12361664944E+01	4.07189964785E+00	-5.60358307536E+00	-1.33957461991E+02
8.92970333333E+07	-2.06603399004E+01	3.63624331240E+01	-2.71775877052E+01	-1.71076338826E+02	-7.30403970561E+01	-1.75558582654E+02	-5.52764602262E+00	-1.34533972053E+02
9.02970000000E+07	-1.98061343283E+01	3.41358764973E+01	-2.64049966637E+01	-1.75430708456E+02	-7.77385984949E+01	-8.02836904119E+00	-5.45278680488E+00	-1.34903781699E+02
9.12969666667E+07	-1.91506010291E+01	3.26538689690E+01	-2.57694257064E+01	-1.76954282492E+02	-6.09888544407E+01	1.38624865356E+02	-5.42565364321E+00	-1.35273792412E+02
9.22969333333E+07	-1.83950173712E+01	3.11204142440E+01	-2.52432435889E+01	-1.78786135501E+02	-6.75000161905E+01	1.02528065544E+02	-5.32953966918E+00	-1.35815699392E+02
9.32969000000E+07	-1.77832161689E+01	2.92291140375E+01	-2.49114608944E+01	1.77742709778E+02	-6.43085962523E+01	-1.40248957486E+02	-5.23889625153E+00	-1.36169843759E+02
9.42968666667E+07	-1.71778834236E+01	2.78559050292E+01	-2.40870283230E+01	1.75912059893E+02	-6.57862733966E+01	-1.62069855666E+02	-5.17014277907E+00	-1.36497907390E+02
9.52968333333E+07	-1.66895324927E+01	2.66953315425E+01	-2.35243077325E+01	1.73036634389E+02	-6.98863186085E+01	1.42318023669E+02	-5.14886701458E+00	-1.36773887746E+02
9.62968000000E+07	-1.61772017486E+01	2.49544676707E+01	-2.29931539068E+01	1.71094696541E+02	-6.97257515451E+01	-2.10608932120E+01	-5.07682566381E+00	-1.37461808375E+02
9.72967666667E+07	-1.57684176348E+01	2.35742738389E+01	-2.24832545703E+01	1.68195880472E+02	-8.60745952894E+01	-1.72448508337E+02	-5.00054989811E+00	-1.37708762595E+02
9.82967333333E+07	-1.53590160425E+01	2.19024683080E+01	-2.20017585295E+01	1.65615160291E+02	-6.97305824277E+01	-2.56003929847E+01	-4.92259745485E+00	-1.37955088263E+02
9.92967000000E+07	-1.49218833388E+01	2.07020555377E+01	-2.14212700551E+01	1.63517902195E+02	-6.69114479358E+01	3.52644767997E+01	-4.86595224664E+00	-1.38599873704E+02
1.00296666667E+08	-1.45340336997E+01	1.91641609575E+01	-2.09372687830E+01	1.60810011770E+02	-7.13892106424E+01	1.50534146328E+02	-4.83784061007E+00	-1.39085561190E+02
1.01296633333E+08	-1.42039411061E+01	1.81532153575E+01	-2.03481585774E+01	1.58678704051E+02	-7.47145038286E+01	7.48771658176E+01	-4.74555110421E+00	-1.39495118609E+02
1.02296600000E+08	-1.38653720057E+01	1.65560829869E+01	-1.99298548492E+01	1.55739633538E+02	-6.85148916779E+01	1.24662536576E+02	-4.71768480467E+00	-1.39806279650E+02
1.03296566667E+08	-1.35746640765E+01	1.53512099401E+01	-1.94005986363E+01	1.52854803309E+02	-7.75188215346E+01	-1.23083983555E+02	-4.64544986865E+00	-1.40140888705E+02
1.04296533333E+08	-1.32564168338E+01	1.37988576968E+01	-1.88771443582E+01	1.51275522159E+02	-6.66531112308E+01	4.65592194029E+00	-4.59579917721E+00	-1.40926344383E+02
1.05296500000E+08	-1.30095560075E+01	1.25499228020E+01	-1.83910921264E+01	1.47884275587E+02	-6.78696113795E+01	-7.24425795335E+01	-4.51221177095E+00	-1.41163130981E+02
1.06296466667E+08	-1.27389567521E+01	1.16560061085E+01	-1.79355861284E+01	1.45920994820E+02	-6.64241054432E+01	-1.10648661878E+02	-4.45972803114E+00	-1.41536656009E+02
1.07296433333E+08	-1.25055386340E+01	1.02008648924E+01	-1.74010983344E+01	1.43253108632E+02	-7.62858911045E+01	-7.25910122356E+01	-4.45370817782E+00	-1.42010159325E+02
1.08296400000E+08	-1.22556913782E+01	8.82329491249E+00	-1.69600806929E+01	1.40507285643E+02	-7.13554320117E+01	3.73455932553E+01	-4.37219537013E+00	-1.42449340573E+02
1.09296366667E+08	-1.20470414504E+01	7.94057282531E+00	-1.65124836105E+01	1.37991500662E+02	-6.55785714923E+01	-1.68276823937E+02	-4.32944193792E+00	-1.42668351387E+02
1.10296333333E+08	-1.18058157337E+01	6.38449064905E+00	-1.60474012783E+01	1.35902939752E+02	-6.77791755798E+01	-7.95679510531E+01	-4.27855677559E+00	-1.43189262097E+02
1.11296300000E+08	-1.16239379252E+01	5.10598841506E+00	-1.55502543839E+01	1.33086073623E+02	-6.48806352022E+01	-1.27142578448E+02	-4.25338725505E+00	-1.43425554283E+02
1.12296266667E+08	-1.14260418636E+01	3.89576235954E+00	-1.50901626276E+01	1.30389176569E+02	-7.41095413718E+01	3.82189431674E+01	-4.22768467280E+00	-1.44199200165E+02
1.13296233333E+08	-1.12203532349E+01	2.92754726962E+00	-1.47129691387E+01	1.27414147640E+02	-7.20332285253E+01	-1.37754635577E+02	-4.20320585579E+00	-1.44463232082E+02
1.14296200000E+08	-1.10616060203E+01	1.50300206724E+00	-1.42040558645E+01	1.25007700012E+02	-6.47338469752E+01	5.92131486447E+01	-4.06922965438E+00	-1.44818736271E+02
1.15296166667E+08	-1.08885521567E+01	5.55380672571E-01	-1.37773161275E+01	1.22225272653E+02	-7.02435397442E+01	-1.65969449868E+02	-4.02911220645E+00	-1.45246675652E+02
1.16296133333E+08	-1.07129334206E+01	-7.59759359779E-01	-1.33252857324E+01	1.19535018225E+02	-6.94957323657E+01	6.33103727310E+00	-3.99497207343E+00	-1.45779096493E+02
