# Hz S DB R 50
! CMT, SC5090, 24087134, 25.3.3/4
! Date: 14.12.2025 16:03:34
! Data: Format (Calibration Info)
! Freq	S11:dB/Ang(F1)
7.50000000000E+08	-3.24084973473E-01	1.17839588840E+02
7.50250000000E+08	-3.25501053184E-01	1.17793921152E+02
7.50500000000E+08	-3.25018787335E-01	1.17762392340E+02
7.50750000000E+08	-3.26254398213E-01	1.17715145426E+02
7.51000000000E+08	-3.25327389755E-01	1.17679625102E+02
7.51250000000E+08	-3.28288803519E-01	1.17655643479E+02
7.51500000000E+08	-3.26793799607E-01	1.17613166496E+02
7.51750000000E+08	-3.26467538900E-01	1.17567216850E+02
7.52000000000E+08	-3.27796107262E-01	1.17526657263E+02
7.52250000000E+08	-3.27012234318E-01	1.17490477217E+02
7.52500000000E+08	-3.29541916963E-01	1.17460073645E+02
7.52750000000E+08	-3.26217524607E-01	1.17413269758E+02
7.53000000000E+08	-3.27713178309E-01	1.17379763733E+02
7.53250000000E+08	-3.27525484390E-01	1.17327922459E+02
7.53500000000E+08	-3.29311398688E-01	1.17304223391E+02
7.53750000000E+08	-3.30116523340E-01	1.17265049792E+02
7.54000000000E+08	-3.28689361616E-01	1.17230420775E+02
7.54250000000E+08	-3.28077950330E-01	1.17189764807E+02
7.54500000000E+08	-3.28880125294E-01	1.17143715562E+02
7.54750000000E+08	-3.29840729974E-01	1.17108574773E+02
7.55000000000E+08	-3.29375477314E-01	1.17049719516E+02
7.55250000000E+08	-3.31228020509E-01	1.17018649267E+02
7.55500000000E+08	-3.29287922851E-01	1.16990167420E+02
7.55750000000E+08	-3.28612467965E-01	1.16941825548E+02
7.56000000000E+08	-3.29295234882E-01	1.16910740518E+02
7.56250000000E+08	-3.31815654566E-01	1.16863197159E+02
7.56500000000E+08	-3.32494409190E-01	1.16815824650E+02
7.56750000000E+08	-3.33940171825E-01	1.16789521699E+02
7.57000000000E+08	-3.31811209849E-01	1.16748165172E+02
7.57250000000E+08	-3.33831920649E-01	1.16716150486E+02
7.57500000000E+08	-3.32452279071E-01	1.16658588368E+02
7.57750000000E+08	-3.32998582725E-01	1.16651230656E+02
7.58000000000E+08	-3.33874571759E-01	1.16586001137E+02
7.58250000000E+08	-3.33036070300E-01	1.16562336263E+02
7.58500000000E+08	-3.34854496487E-01	1.16518209963E+02
7.58750000000E+08	-3.34521721449E-01	1.16473588480E+02
7.59000000000E+08	-3.36289810284E-01	1.16451250632E+02
7.59250000000E+08	-3.36795594671E-01	1.16411122922E+02
7.59500000000E+08	-3.36215052030E-01	1.16358762746E+02
7.59750000000E+08	-3.36293913963E-01	1.16308247144E+02
7.60000000000E+08	-3.36941379691E-01	1.16268705550E+02
7.60250000000E+08	-3.37409979818E-01	1.16223806594E+02
7.60500000000E+08	-3.38144013178E-01	1.16195946145E+02
7.60750000000E+08	-3.40776044068E-01	1.16166529657E+02
7.61000000000E+08	-3.40128613886E-01	1.16136672854E+02
7.61250000000E+08	-3.41078463501E-01	1.16098875586E+02
7.61500000000E+08	-3.39825253805E-01	1.16067891929E+02
7.61750000000E+08	-3.37301295521E-01	1.16005658729E+02
7.62000000000E+08	-3.38921349654E-01	1.15996387738E+02
7.62250000000E+08	-3.39749118842E-01	1.15941076879E+02
7.62500000000E+08	-3.39677304818E-01	1.15896400990E+02
7.62750000000E+08	-3.38773061286E-01	1.15871528583E+02
7.63000000000E+08	-3.40526581508E-01	1.15834357825E+02
7.63250000000E+08	-3.43494754343E-01	1.15802344347E+02
7.63500000000E+08	-3.42085858337E-01	1.15765138228E+02
7.63750000000E+08	-3.41909604203E-01	1.15721118621E+02
7.64000000000E+08	-3.43944488409E-01	1.15666486711E+02
7.64250000000E+08	-3.42795372071E-01	1.15641790169E+02
7.64500000000E+08	-3.44342631148E-01	1.15600135705E+02
7.64750000000E+08	-3.41209055430E-01	1.15575563848E+02
7.65000000000E+08	-3.43471654652E-01	1.15542560962E+02
7.65250000000E+08	-3.44501534850E-01	1.15500719437E+02
7.65500000000E+08	-3.44533822151E-01	1.15465541776E+02
7.65750000000E+08	-3.43507356927E-01	1.15421106860E+02
7.66000000000E+08	-3.45102110050E-01	1.15380374351E+02
7.66250000000E+08	-3.45815649648E-01	1.15368643680E+02
7.66500000000E+08	-3.46392146459E-01	1.15317039952E+02
7.66750000000E+08	-3.46997894238E-01	1.15278078265E+02
7.67000000000E+08	-3.45984281415E-01	1.15253441624E+02
7.67250000000E+08	-3.43994685366E-01	1.15203088020E+02
7.67500000000E+08	-3.45234765455E-01	1.15177082869E+02
7.67750000000E+08	-3.45889789788E-01	1.15130173249E+02
7.68000000000E+08	-3.45757774887E-01	1.15086467905E+02
7.68250000000E+08	-3.45608203781E-01	1.15043908203E+02
7.68500000000E+08	-3.46383179715E-01	1.15009239482E+02
7.68750000000E+08	-3.46451185031E-01	1.14971625703E+02
7.69000000000E+08	-3.44257547013E-01	1.14920975471E+02
7.69250000000E+08	-3.43759653429E-01	1.14892694199E+02
7.69500000000E+08	-3.43494202890E-01	1.14848859281E+02
7.69750000000E+08	-3.45426271907E-01	1.14807059210E+02
7.70000000000E+08	-3.46390932477E-01	1.14760943690E+02
7.70250000000E+08	-3.42437609599E-01	1.14715149991E+02
7.70500000000E+08	-3.43675680587E-01	1.14683312028E+02
7.70750000000E+08	-3.41207629967E-01	1.14620136083E+02
7.71000000000E+08	-3.45244946695E-01	1.14593609268E+02
7.71250000000E+08	-3.44950768056E-01	1.14549951472E+02
7.71500000000E+08	-3.46356671825E-01	1.14517000014E+02
7.71750000000E+08	-3.45467913465E-01	1.14468369598E+02
7.72000000000E+08	-3.45979663543E-01	1.14432362739E+02
7.72250000000E+08	-3.48897500026E-01	1.14402753547E+02
7.72500000000E+08	-3.50255422453E-01	1.14359458616E+02
7.72750000000E+08	-3.46514890268E-01	1.14310519091E+02
7.73000000000E+08	-3.49222672916E-01	1.14262172492E+02
7.73250000000E+08	-3.48045916592E-01	1.14218530128E+02
7.73500000000E+08	-3.48077552524E-01	1.14189398818E+02
7.73750000000E+08	-3.50699828414E-01	1.14121741711E+02
7.74000000000E+08	-3.49466142981E-01	1.14109227476E+02
7.74250000000E+08	-3.51078304550E-01	1.14072017676E+02
7.74500000000E+08	-3.52592030456E-01	1.14026671901E+02
7.74750000000E+08	-3.52217268628E-01	1.13976399013E+02
7.75000000000E+08	-3.52032850789E-01	1.13939169468E+02
7.75250000000E+08	-3.52483987027E-01	1.13892205439E+02
7.75500000000E+08	-3.54069372457E-01	1.13878444734E+02
7.75750000000E+08	-3.52988640139E-01	1.13834822699E+02
7.76000000000E+08	-3.54738495588E-01	1.13797528472E+02
7.76250000000E+08	-3.54220762574E-01	1.13744488878E+02
7.76500000000E+08	-3.53580723235E-01	1.13719332798E+02
7.76750000000E+08	-3.55844500672E-01	1.13679311580E+02
7.77000000000E+08	-3.54089390549E-01	1.13632574675E+02
7.77250000000E+08	-3.54667822639E-01	1.13591718264E+02
7.77500000000E+08	-3.55526495480E-01	1.13555080056E+02
7.77750000000E+08	-3.55540356922E-01	1.13517689513E+02
7.78000000000E+08	-3.54172358468E-01	1.13471563454E+02
7.78250000000E+08	-3.55041430561E-01	1.13442179867E+02
7.78500000000E+08	-3.57936631349E-01	1.13390055128E+02
7.78750000000E+08	-3.56977988418E-01	1.13357511982E+02
7.79000000000E+08	-3.56768856619E-01	1.13309641149E+02
7.79250000000E+08	-3.59130983316E-01	1.13281568731E+02
7.79500000000E+08	-3.58485286859E-01	1.13237545552E+02
7.79750000000E+08	-3.52462465870E-01	1.13186550173E+02
7.80000000000E+08	-3.58074109178E-01	1.13156596713E+02
7.80250000000E+08	-3.55124186513E-01	1.13108242720E+02
7.80500000000E+08	-3.56632629356E-01	1.13064292710E+02
7.80750000000E+08	-3.58645538559E-01	1.13017859728E+02
7.81000000000E+08	-3.57696337335E-01	1.12990940524E+02
7.81250000000E+08	-3.58046435719E-01	1.12933263193E+02
7.81500000000E+08	-3.58912964417E-01	1.12908427620E+02
7.81750000000E+08	-3.59664390668E-01	1.12863045620E+02
7.82000000000E+08	-3.60870501466E-01	1.12808501500E+02
7.82250000000E+08	-3.57793507775E-01	1.12773563349E+02
7.82500000000E+08	-3.58502471986E-01	1.12740577350E+02
7.82750000000E+08	-3.59393562927E-01	1.12710650092E+02
7.83000000000E+08	-3.61482975237E-01	1.12645493207E+02
7.83250000000E+08	-3.60704066869E-01	1.12628430899E+02
7.83500000000E+08	-3.63785382797E-01	1.12568614651E+02
7.83750000000E+08	-3.60644138842E-01	1.12509804286E+02
7.84000000000E+08	-3.63835559726E-01	1.12480289166E+02
7.84250000000E+08	-3.62932472611E-01	1.12437124219E+02
7.84500000000E+08	-3.64427495478E-01	1.12409588293E+02
7.84750000000E+08	-3.64183799976E-01	1.12361662308E+02
7.85000000000E+08	-3.61155843974E-01	1.12329112973E+02
7.85250000000E+08	-3.64314354402E-01	1.12273988146E+02
7.85500000000E+08	-3.65275192151E-01	1.12231630654E+02
7.85750000000E+08	-3.66875402343E-01	1.12204713420E+02
7.86000000000E+08	-3.66741741923E-01	1.12150642313E+02
7.86250000000E+08	-3.66506847203E-01	1.12137383337E+02
7.86500000000E+08	-3.68687621559E-01	1.12070904342E+02
7.86750000000E+08	-3.67151233760E-01	1.12027321693E+02
7.87000000000E+08	-3.66617853843E-01	1.11993896115E+02
7.87250000000E+08	-3.66552013644E-01	1.11960225913E+02
7.87500000000E+08	-3.67434265742E-01	1.11912269288E+02
7.87750000000E+08	-3.68171677937E-01	1.11873889445E+02
7.88000000000E+08	-3.68309604156E-01	1.11833020221E+02
7.88250000000E+08	-3.71240286259E-01	1.11789199217E+02
7.88500000000E+08	-3.68316678254E-01	1.11739581339E+02
7.88750000000E+08	-3.71842656695E-01	1.11696687094E+02
7.89000000000E+08	-3.70545008064E-01	1.11662660851E+02
7.89250000000E+08	-3.71438636945E-01	1.11644321436E+02
7.89500000000E+08	-3.72043228679E-01	1.11593557955E+02
7.89750000000E+08	-3.75186983753E-01	1.11547729982E+02
7.90000000000E+08	-3.73641954571E-01	1.11508175353E+02
7.90250000000E+08	-3.72771045617E-01	1.11466101084E+02
7.90500000000E+08	-3.76993187326E-01	1.11436150585E+02
7.90750000000E+08	-3.75357872781E-01	1.11405965896E+02
7.91000000000E+08	-3.76679829113E-01	1.11358820089E+02
7.91250000000E+08	-3.73897910990E-01	1.11325914441E+02
7.91500000000E+08	-3.74212118242E-01	1.11288422107E+02
7.91750000000E+08	-3.76113884666E-01	1.11263859910E+02
7.92000000000E+08	-3.74584055383E-01	1.11204879562E+02
7.92250000000E+08	-3.77249842438E-01	1.11181985653E+02
7.92500000000E+08	-3.72196184041E-01	1.11134591932E+02
7.92750000000E+08	-3.75517325848E-01	1.11091454314E+02
7.93000000000E+08	-3.74238037512E-01	1.11065835976E+02
7.93250000000E+08	-3.74292217678E-01	1.11005272944E+02
7.93500000000E+08	-3.75728204071E-01	1.10951382400E+02
7.93750000000E+08	-3.75615511424E-01	1.10937098155E+02
7.94000000000E+08	-3.72548906525E-01	1.10871454459E+02
7.94250000000E+08	-3.73770472602E-01	1.10840816291E+02
7.94500000000E+08	-3.72846695245E-01	1.10805305699E+02
7.94750000000E+08	-3.75467518988E-01	1.10745135936E+02
7.95000000000E+08	-3.74411827811E-01	1.10715296169E+02
7.95250000000E+08	-3.72879384104E-01	1.10666766451E+02
7.95500000000E+08	-3.73956406523E-01	1.10611863314E+02
7.95750000000E+08	-3.73219858392E-01	1.10588263896E+02
7.96000000000E+08	-3.75053693877E-01	1.10552508298E+02
7.96250000000E+08	-3.75530407704E-01	1.10494549143E+02
7.96500000000E+08	-3.75548384961E-01	1.10455218358E+02
7.96750000000E+08	-3.73528154905E-01	1.10418326386E+02
7.97000000000E+08	-3.76190066394E-01	1.10356377419E+02
7.97250000000E+08	-3.77473010028E-01	1.10328045529E+02
7.97500000000E+08	-3.77609212673E-01	1.10294574074E+02
7.97750000000E+08	-3.73897647114E-01	1.10230755879E+02
7.98000000000E+08	-3.77491683178E-01	1.10208655309E+02
7.98250000000E+08	-3.77703071524E-01	1.10151169604E+02
7.98500000000E+08	-3.76128382037E-01	1.10126923166E+02
7.98750000000E+08	-3.78913031736E-01	1.10084360429E+02
7.99000000000E+08	-3.78364002464E-01	1.10042542076E+02
7.99250000000E+08	-3.77321268674E-01	1.10005230545E+02
7.99500000000E+08	-3.75633340291E-01	1.09964590525E+02
7.99750000000E+08	-3.76653812450E-01	1.09905407767E+02
8.00000000000E+08	-3.79791975927E-01	1.09885601391E+02
8.00250000000E+08	-3.75882829140E-01	1.09844092938E+02
8.00500000000E+08	-3.76609160247E-01	1.09795528476E+02
8.00750000000E+08	-3.72602687702E-01	1.09759913865E+02
8.01000000000E+08	-3.74408503595E-01	1.09723194412E+02
8.01250000000E+08	-3.78442695124E-01	1.09682822348E+02
8.01500000000E+08	-3.73831683358E-01	1.09625884381E+02
8.01750000000E+08	-3.77232461398E-01	1.09610932175E+02
8.02000000000E+08	-3.75180026023E-01	1.09552826938E+02
8.02250000000E+08	-3.75341447615E-01	1.09508515533E+02
8.02500000000E+08	-3.75352519077E-01	1.09451594092E+02
8.02750000000E+08	-3.73083041905E-01	1.09412268314E+02
8.03000000000E+08	-3.77006734337E-01	1.09389207102E+02
8.03250000000E+08	-3.73118845016E-01	1.09340239335E+02
8.03500000000E+08	-3.74440842320E-01	1.09281378601E+02
8.03750000000E+08	-3.72363220582E-01	1.09264309680E+02
8.04000000000E+08	-3.78219193916E-01	1.09186097569E+02
8.04250000000E+08	-3.75987858208E-01	1.09158989001E+02
8.04500000000E+08	-3.74123449044E-01	1.09109607455E+02
8.04750000000E+08	-3.73092542797E-01	1.09073321387E+02
8.05000000000E+08	-3.76542563440E-01	1.09034438673E+02
8.05250000000E+08	-3.73631203314E-01	1.08983863414E+02
8.05500000000E+08	-3.73517618850E-01	1.08948920307E+02
8.05750000000E+08	-3.78282503369E-01	1.08904406693E+02
8.06000000000E+08	-3.77957735248E-01	1.08854872053E+02
8.06250000000E+08	-3.77556132847E-01	1.08800204929E+02
8.06500000000E+08	-3.77501846678E-01	1.08777448519E+02
8.06750000000E+08	-3.76802846773E-01	1.08721198806E+02
8.07000000000E+08	-3.78770316291E-01	1.08669555220E+02
8.07250000000E+08	-3.79156965534E-01	1.08638027805E+02
8.07500000000E+08	-3.78890729497E-01	1.08582463575E+02
8.07750000000E+08	-3.77857761204E-01	1.08561628807E+02
8.08000000000E+08	-3.80709511905E-01	1.08519430603E+02
8.08250000000E+08	-3.79748607247E-01	1.08457055974E+02
8.08500000000E+08	-3.81627769431E-01	1.08430209320E+02
8.08750000000E+08	-3.82617828739E-01	1.08384845141E+02
8.09000000000E+08	-3.84502953583E-01	1.08333994701E+02
8.09250000000E+08	-3.83368906300E-01	1.08301296360E+02
8.09500000000E+08	-3.83636998545E-01	1.08257902906E+02
8.09750000000E+08	-3.82974083204E-01	1.08229924739E+02
8.10000000000E+08	-3.83820698628E-01	1.08181418047E+02
8.10250000000E+08	-3.84121641762E-01	1.08130102273E+02
8.10500000000E+08	-3.84747499685E-01	1.08092386462E+02
8.10750000000E+08	-3.81987279913E-01	1.08069234020E+02
8.11000000000E+08	-3.86029538142E-01	1.08024246848E+02
8.11250000000E+08	-3.84854802714E-01	1.07985824973E+02
8.11500000000E+08	-3.85117599568E-01	1.07931939890E+02
8.11750000000E+08	-3.85915685248E-01	1.07875795019E+02
8.12000000000E+08	-3.84547098944E-01	1.07842787942E+02
8.12250000000E+08	-3.86310472162E-01	1.07797572696E+02
8.12500000000E+08	-3.85583432419E-01	1.07762410808E+02
8.12750000000E+08	-3.84296650796E-01	1.07736963627E+02
8.13000000000E+08	-3.85819583670E-01	1.07702699460E+02
8.13250000000E+08	-3.85328826870E-01	1.07647214497E+02
8.13500000000E+08	-3.84275052881E-01	1.07612467664E+02
8.13750000000E+08	-3.85797465357E-01	1.07589352094E+02
8.14000000000E+08	-3.85589662788E-01	1.07547793474E+02
8.14250000000E+08	-3.86091471534E-01	1.07476808175E+02
8.14500000000E+08	-3.85641240361E-01	1.07454117427E+02
8.14750000000E+08	-3.84336256870E-01	1.07394823146E+02
8.15000000000E+08	-3.84596658943E-01	1.07377908017E+02
8.15250000000E+08	-3.83607914522E-01	1.07326348726E+02
8.15500000000E+08	-3.84212634843E-01	1.07268556103E+02
8.15750000000E+08	-3.85399652568E-01	1.07240955012E+02
8.16000000000E+08	-3.84654936298E-01	1.07208330895E+02
8.16250000000E+08	-3.84496757727E-01	1.07169389905E+02
8.16500000000E+08	-3.84103888155E-01	1.07112948212E+02
8.16750000000E+08	-3.84089221428E-01	1.07047649789E+02
8.17000000000E+08	-3.80397399532E-01	1.07032696331E+02
8.17250000000E+08	-3.87474983109E-01	1.06984571238E+02
8.17500000000E+08	-3.83846332230E-01	1.06919313945E+02
8.17750000000E+08	-3.83737412116E-01	1.06902576723E+02
8.18000000000E+08	-3.85218160709E-01	1.06831317316E+02
8.18250000000E+08	-3.84045568528E-01	1.06795401139E+02
8.18500000000E+08	-3.83847541012E-01	1.06760043233E+02
8.18750000000E+08	-3.82956590279E-01	1.06718124442E+02
8.19000000000E+08	-3.82648892627E-01	1.06656311234E+02
8.19250000000E+08	-3.86431788324E-01	1.06623845118E+02
8.19500000000E+08	-3.85602045687E-01	1.06596421226E+02
8.19750000000E+08	-3.84355026458E-01	1.06556329046E+02
8.20000000000E+08	-3.85817615829E-01	1.06509078454E+02
8.20250000000E+08	-3.87197892675E-01	1.06449411194E+02
8.20500000000E+08	-3.84672859128E-01	1.06397511361E+02
8.20750000000E+08	-3.86974670919E-01	1.06372997705E+02
8.21000000000E+08	-3.86020018095E-01	1.06307789958E+02
8.21250000000E+08	-3.87512869301E-01	1.06276482342E+02
8.21500000000E+08	-3.87761868770E-01	1.06229890113E+02
8.21750000000E+08	-3.85013966632E-01	1.06167356245E+02
8.22000000000E+08	-3.88883298332E-01	1.06147085971E+02
8.22250000000E+08	-3.89510999258E-01	1.06111168299E+02
8.22500000000E+08	-3.89264708224E-01	1.06065971289E+02
8.22750000000E+08	-3.89352888263E-01	1.06028641021E+02
8.23000000000E+08	-3.88984976882E-01	1.05997552801E+02
8.23250000000E+08	-3.87480531534E-01	1.05941239973E+02
8.23500000000E+08	-3.91778266735E-01	1.05909743730E+02
8.23750000000E+08	-3.86979453352E-01	1.05869112526E+02
8.24000000000E+08	-3.89221563780E-01	1.05812461304E+02
8.24250000000E+08	-3.90209776555E-01	1.05774750105E+02
8.24500000000E+08	-3.90442053983E-01	1.05727866414E+02
8.24750000000E+08	-3.90412419239E-01	1.05682080905E+02
8.25000000000E+08	-3.92133756293E-01	1.05646315650E+02
8.25250000000E+08	-3.88464259755E-01	1.05586738283E+02
8.25500000000E+08	-3.89813398690E-01	1.05580271604E+02
8.25750000000E+08	-3.89035049446E-01	1.05514825882E+02
8.26000000000E+08	-3.93350909248E-01	1.05472168656E+02
8.26250000000E+08	-3.91878128618E-01	1.05422577887E+02
8.26500000000E+08	-3.92504999256E-01	1.05380388578E+02
8.26750000000E+08	-3.92610432824E-01	1.05345081345E+02
8.27000000000E+08	-3.92388715200E-01	1.05308890080E+02
8.27250000000E+08	-3.95037246477E-01	1.05241202546E+02
8.27500000000E+08	-3.92106839100E-01	1.05195955157E+02
8.27750000000E+08	-3.94414299428E-01	1.05165829529E+02
8.28000000000E+08	-3.96668821372E-01	1.05116868564E+02
8.28250000000E+08	-3.95502051850E-01	1.05081211722E+02
8.28500000000E+08	-3.95472059390E-01	1.05024661585E+02
8.28750000000E+08	-3.98321921720E-01	1.05018462443E+02
8.29000000000E+08	-4.00516259149E-01	1.04951079016E+02
8.29250000000E+08	-3.99608576283E-01	1.04916627003E+02
8.29500000000E+08	-4.01369197533E-01	1.04853395142E+02
8.29750000000E+08	-4.00818708222E-01	1.04836002286E+02
8.30000000000E+08	-4.00552557115E-01	1.04783390458E+02
8.30250000000E+08	-4.00904387633E-01	1.04746009202E+02
8.30500000000E+08	-4.03255175573E-01	1.04717486287E+02
8.30750000000E+08	-4.02168243319E-01	1.04656984550E+02
8.31000000000E+08	-4.01626634928E-01	1.04637028791E+02
8.31250000000E+08	-4.03305174377E-01	1.04591624365E+02
8.31500000000E+08	-4.03879617211E-01	1.04555294722E+02
8.31750000000E+08	-4.04718141038E-01	1.04508059146E+02
8.32000000000E+08	-4.05325590299E-01	1.04465123462E+02
8.32250000000E+08	-4.05806261331E-01	1.04443918353E+02
8.32500000000E+08	-4.02505625781E-01	1.04369413645E+02
8.32750000000E+08	-4.04862416512E-01	1.04336536130E+02
8.33000000000E+08	-4.04117816484E-01	1.04301718617E+02
8.33250000000E+08	-4.07133815732E-01	1.04250166396E+02
8.33500000000E+08	-4.08531711022E-01	1.04226038790E+02
8.33750000000E+08	-4.08416080339E-01	1.04180375819E+02
8.34000000000E+08	-4.06236156944E-01	1.04153416963E+02
8.34250000000E+08	-4.08295986319E-01	1.04103950133E+02
8.34500000000E+08	-4.08317436404E-01	1.04057098749E+02
8.34750000000E+08	-4.08893695134E-01	1.04020015088E+02
8.35000000000E+08	-4.10727069390E-01	1.03973786057E+02
8.35250000000E+08	-4.10499575891E-01	1.03938309915E+02
8.35500000000E+08	-4.09978512203E-01	1.03890981640E+02
8.35750000000E+08	-4.14860626088E-01	1.03855176995E+02
8.36000000000E+08	-4.14689410147E-01	1.03840652147E+02
8.36250000000E+08	-4.14599104403E-01	1.03793574929E+02
8.36500000000E+08	-4.13643521643E-01	1.03745336862E+02
8.36750000000E+08	-4.15090062076E-01	1.03696144306E+02
8.37000000000E+08	-4.16401904879E-01	1.03659649144E+02
8.37250000000E+08	-4.15290620626E-01	1.03616731800E+02
8.37500000000E+08	-4.15203547094E-01	1.03588705339E+02
8.37750000000E+08	-4.14705340462E-01	1.03532719722E+02
8.38000000000E+08	-4.15021554759E-01	1.03491652781E+02
8.38250000000E+08	-4.16758567673E-01	1.03465581807E+02
8.38500000000E+08	-4.18586853790E-01	1.03429957958E+02
8.38750000000E+08	-4.17841945524E-01	1.03383895291E+02
8.39000000000E+08	-4.19246523303E-01	1.03340506028E+02
8.39250000000E+08	-4.16365839858E-01	1.03293354339E+02
8.39500000000E+08	-4.17962989372E-01	1.03254343733E+02
8.39750000000E+08	-4.20708272372E-01	1.03208513831E+02
8.40000000000E+08	-4.21424281969E-01	1.03169758057E+02
