# Hz S DB R 50
! CMT, SC5090, 24087134, 25.3.3/4
! Date: 06.11.2025 18:47:14
! Data: Format (Calibration Info)
! Freq	S11:dB/Ang(F2)	S21:dB/Ang(F2)	S12:dB/Ang(F2)	S22:dB/Ang(F2)
3.00000000000E+05	1.84192678683E-02	-1.97026116039E-01	-5.32627238451E+01	8.07980367776E+00	-7.29586259424E+01	-1.37102925938E+02	3.14544679579E-02	-3.37379953896E-01
1.29996666667E+06	-1.96974771816E-02	-7.36941726405E-01	-5.69707846978E+01	-8.56274372193E+01	-6.32301705364E+01	-8.04937660521E+01	1.76127323036E-02	-1.04023002446E+00
2.29993333333E+06	3.57218919107E-03	-1.05668188333E+00	-5.51611405550E+01	-9.27216066881E+01	-6.68193450399E+01	-6.12677814577E+01	-4.75245839064E-02	-1.84720213023E+00
3.29990000000E+06	-8.92157324535E-03	-1.40565285197E+00	-5.18081422657E+01	-7.99663943354E+01	-6.24544831537E+01	1.40865680354E+02	-4.42304834983E-02	-2.61059819246E+00
4.29986666667E+06	-1.28484063511E-02	-1.62437149404E+00	-5.07568639191E+01	-8.52498825193E+01	-7.12848767436E+01	-1.37476170495E+02	2.06511254746E-02	-3.09695933252E+00
5.29983333333E+06	5.39810612267E-04	-2.27274326529E+00	-4.74502529140E+01	-8.36319476658E+01	-6.83691537999E+01	-4.96919831374E+01	1.83290627091E-02	-4.08767730971E+00
6.29980000000E+06	-1.17052547128E-02	-2.55502696959E+00	-4.62740673272E+01	-8.16369859178E+01	-6.67051193985E+01	-9.18450143180E+01	4.41581943384E-02	-5.24956982631E+00
7.29976666667E+06	7.89696606902E-03	-3.22036597243E+00	-4.45439521001E+01	-7.69998085309E+01	-6.52260193737E+01	3.63531139875E+01	4.44402082458E-03	-5.67205258328E+00
8.29973333333E+06	3.07919453077E-02	-3.44063371643E+00	-4.39715874192E+01	-7.83402547716E+01	-6.35435097461E+01	2.00414917782E+01	3.34754167744E-02	-6.60212287794E+00
9.29970000000E+06	1.27737540180E-02	-3.88029334558E+00	-4.28382609483E+01	-7.43161190840E+01	-7.18575080587E+01	1.14969969324E+02	3.14958946092E-02	-7.25144195654E+00
1.02996666667E+07	1.84696251807E-03	-4.21626168058E+00	-4.22382983772E+01	-7.33478707240E+01	-7.42841446884E+01	8.32009889552E+01	2.29621781575E-02	-7.79525972678E+00
1.12996333333E+07	9.05537004796E-04	-4.87938281992E+00	-4.10948871759E+01	-7.10665574631E+01	-6.49221382573E+01	-1.39744878320E+02	-1.21806872878E-02	-8.89982162138E+00
1.22996000000E+07	-4.69573378581E-03	-4.97560230525E+00	-4.06406953643E+01	-6.80043447490E+01	-6.93026283753E+01	9.76737926051E+01	-3.57103953913E-03	-9.64140988968E+00
1.32995666667E+07	3.33285159760E-02	-5.63359933888E+00	-4.01236035916E+01	-6.84239840414E+01	-6.78435445991E+01	5.98096745972E+01	1.34454444652E-02	-1.04641393671E+01
1.42995333333E+07	-5.98718819738E-03	-5.90045853399E+00	-3.95646020994E+01	-6.29589128762E+01	-6.71891470431E+01	1.20213602037E+01	-1.06130372900E-02	-1.10570426090E+01
1.52995000000E+07	2.59849085932E-02	-6.30155890374E+00	-3.97314853364E+01	-5.52759128117E+01	-6.75390145340E+01	-7.96967597715E+01	1.19265598970E-02	-1.21991224635E+01
1.62994666667E+07	-1.05697992005E-02	-6.87477408787E+00	-3.95932319282E+01	-5.36555388853E+01	-6.73058795338E+01	-1.49762433738E+02	-1.77861888742E-02	-1.28245018188E+01
1.72994333333E+07	1.44795925564E-02	-7.18645828663E+00	-3.84619203895E+01	-4.53236609023E+01	-7.40933302374E+01	6.52119067373E+01	2.34053771622E-03	-1.35362023857E+01
1.82994000000E+07	-3.49496714494E-02	-7.61553633751E+00	-3.82680771931E+01	-3.91079548198E+01	-6.68359028309E+01	-5.15955849023E+01	3.37542453916E-03	-1.44156118493E+01
1.92993666667E+07	9.59930943743E-03	-8.13622213589E+00	-3.65691702675E+01	-2.93750210614E+01	-7.03769971820E+01	2.98232562186E+01	-2.05859284541E-02	-1.51211559934E+01
2.02993333333E+07	2.61724373136E-03	-8.49649967381E+00	-3.52211520227E+01	-2.41977708247E+01	-7.34045925594E+01	1.38852423048E+01	2.27151060949E-02	-1.59651750603E+01
2.12993000000E+07	1.48116715008E-02	-9.01769135066E+00	-3.37789612465E+01	-2.20416489153E+01	-6.98992717503E+01	-4.38188853613E+01	-3.79437933111E-03	-1.67852701721E+01
2.22992666667E+07	1.66507262398E-02	-9.21147264206E+00	-3.22685705594E+01	-2.23087188155E+01	-6.66053190200E+01	-1.24876091256E+02	-7.85380412611E-03	-1.75183386197E+01
2.32992333333E+07	3.41399460162E-02	-9.86047913005E+00	-3.10964375264E+01	-2.16786913403E+01	-8.24846168404E+01	7.81617820351E+01	-3.10736155307E-02	-1.84196535419E+01
2.42992000000E+07	2.10869477211E-02	-1.02590418241E+01	-2.98940001901E+01	-2.29173115190E+01	-6.76571548178E+01	-1.37334044185E+02	4.50674915783E-03	-1.91444332030E+01
2.52991666667E+07	7.96130986231E-03	-1.06610980676E+01	-2.89820296736E+01	-2.29069485711E+01	-6.92757419197E+01	8.32581908276E+01	1.33101638697E-02	-1.98035648615E+01
2.62991333333E+07	1.19208149752E-02	-1.11704678847E+01	-2.81720135119E+01	-2.48541886249E+01	-6.96645611942E+01	1.33068061776E+02	1.01483023775E-02	-2.07511277786E+01
2.72991000000E+07	5.22389544321E-03	-1.16819422655E+01	-2.72134242515E+01	-2.53900174589E+01	-7.09424972662E+01	1.29313416862E+02	1.26804717198E-03	-2.14223348800E+01
2.82990666667E+07	-2.08774152361E-02	-1.17447480028E+01	-2.64598396430E+01	-2.57314234733E+01	-6.91298260917E+01	-3.55340042503E+01	-1.09390243515E-02	-2.23145880441E+01
2.92990333333E+07	7.49808872113E-03	-1.22601321775E+01	-2.57713140954E+01	-2.72584697676E+01	-8.48691074423E+01	-1.35852484083E+02	-1.21817438538E-02	-2.31791427656E+01
3.02990000000E+07	1.31144330824E-02	-1.26981632664E+01	-2.51515315427E+01	-2.76268038274E+01	-6.94282983255E+01	-2.35213119684E+01	-6.87488755408E-03	-2.37878845866E+01
3.12989666667E+07	-7.56064366057E-03	-1.31523781350E+01	-2.44972672049E+01	-2.85943430782E+01	-6.87038665841E+01	4.35681843104E+01	5.07805584514E-03	-2.45748389049E+01
3.22989333333E+07	-1.94463165351E-03	-1.34752677958E+01	-2.39823309823E+01	-2.90203091778E+01	-6.85318346902E+01	-4.64738297043E+01	-7.54197623538E-03	-2.51714676131E+01
3.32989000000E+07	-9.04221150221E-03	-1.39649384097E+01	-2.33277226298E+01	-2.98346554259E+01	-6.86958559166E+01	-1.24233347314E+02	-1.45114705188E-02	-2.63075742398E+01
3.42988666667E+07	1.35206066825E-02	-1.44932703146E+01	-2.28144578730E+01	-3.08141640232E+01	-7.62372014972E+01	4.10892315914E+01	-2.53759030700E-04	-2.70707303685E+01
3.52988333333E+07	6.21174531722E-03	-1.46304877004E+01	-2.22573102091E+01	-3.10414781650E+01	-7.79099761821E+01	1.19941537675E+02	1.39128989550E-03	-2.78704968756E+01
3.62988000000E+07	-8.42045902921E-03	-1.52301999848E+01	-2.16620164757E+01	-3.23837602941E+01	-7.26973216276E+01	-1.67691880536E+02	2.21888415565E-03	-2.86073050384E+01
3.72987666667E+07	-3.79399679891E-03	-1.57154289623E+01	-2.12514454432E+01	-3.25612470542E+01	-7.42060289957E+01	9.57197501699E+01	-7.79157232006E-03	-2.92685079365E+01
3.82987333333E+07	3.37466348567E-02	-1.60224522165E+01	-2.07121285685E+01	-3.32222844371E+01	-7.56774464266E+01	6.53358691542E+01	8.16217086906E-03	-3.01503993752E+01
3.92987000000E+07	8.83038078604E-03	-1.65750115302E+01	-2.01869927010E+01	-3.39638147054E+01	-7.40225070603E+01	7.81486659986E+01	-1.28552634201E-02	-3.08239158391E+01
4.02986666667E+07	3.59162225927E-02	-1.69754600045E+01	-1.97927666854E+01	-3.48675638450E+01	-8.09489943317E+01	-4.48732988575E-01	-2.17119038894E-02	-3.16646872667E+01
4.12986333333E+07	-3.74202069931E-03	-1.71667454288E+01	-1.93215285179E+01	-3.51777564672E+01	-7.03549065747E+01	5.55718644034E+00	1.17515806147E-02	-3.23629034125E+01
4.22986000000E+07	1.37254970100E-02	-1.77969484516E+01	-1.88517228857E+01	-3.59400820067E+01	-6.50699334596E+01	-2.96415250411E+01	-9.92534380613E-03	-3.32909718187E+01
4.32985666667E+07	-2.01028533371E-02	-1.80937152515E+01	-1.84564010924E+01	-3.65024868552E+01	-6.74090892779E+01	4.36105793860E+01	-8.03535671882E-03	-3.38979465772E+01
4.42985333333E+07	3.38561488469E-02	-1.85206807113E+01	-1.80152163248E+01	-3.70608233505E+01	-7.43009621030E+01	-1.48774478670E+02	1.26608629731E-03	-3.46526110955E+01
4.52985000000E+07	9.92509685232E-03	-1.90198529902E+01	-1.75632859797E+01	-3.78595493607E+01	-7.58583985978E+01	7.04241470447E+01	1.81381561097E-02	-3.54489418458E+01
4.62984666667E+07	5.53574547985E-03	-1.94423063762E+01	-1.71472934590E+01	-3.84731620416E+01	-7.40043536856E+01	5.23525709138E+01	-1.96915938319E-02	-3.64343737538E+01
4.72984333333E+07	2.37360957575E-02	-1.98991429132E+01	-1.67294824452E+01	-3.90075502035E+01	-6.97551636151E+01	-1.11989100981E+02	4.39164690936E-03	-3.69983425055E+01
4.82984000000E+07	6.56450815032E-03	-2.02735630093E+01	-1.63423315310E+01	-3.97351911508E+01	-6.94860843190E+01	5.86709175907E+01	-2.33271513108E-03	-3.78617876938E+01
4.92983666667E+07	3.56285429008E-02	-2.07049548664E+01	-1.59529479145E+01	-4.03428056601E+01	-7.37156748078E+01	7.71207240105E+01	-5.87087120534E-03	-3.87702413533E+01
5.02983333333E+07	3.38947923810E-02	-2.10710199926E+01	-1.56098203499E+01	-4.10617180005E+01	-7.18050606253E+01	-7.33587340480E+01	3.38772429454E-03	-3.94231841876E+01
5.12983000000E+07	8.08090700649E-03	-2.12980162937E+01	-1.52234916365E+01	-4.14825185984E+01	-6.29605476259E+01	-1.48867331236E+02	-1.06383993903E-03	-4.02630434908E+01
5.22982666667E+07	-8.72705479850E-03	-2.18986606736E+01	-1.48333701219E+01	-4.23108309491E+01	-6.44694540094E+01	4.40875635150E+01	-3.31727994148E-03	-4.10977147441E+01
5.32982333333E+07	2.76625336791E-02	-2.22754657235E+01	-1.44842974778E+01	-4.28202147702E+01	-7.42566365459E+01	8.12557013501E+00	-1.71991807535E-02	-4.16330193935E+01
5.42982000000E+07	4.57483795893E-02	-2.28482523117E+01	-1.41180529776E+01	-4.36601526654E+01	-6.86325670934E+01	-6.09884377470E+01	-1.35255609551E-04	-4.24992429025E+01
5.52981666667E+07	4.56925855170E-02	-2.30973972682E+01	-1.37735632134E+01	-4.41999739237E+01	-6.25441188901E+01	9.54640846553E+01	-3.10838492761E-03	-4.32407575707E+01
5.62981333333E+07	1.88087750854E-02	-2.35153907705E+01	-1.34045575363E+01	-4.49122552677E+01	-6.93783760340E+01	-1.26379399199E+02	9.00961136760E-03	-4.39361683636E+01
5.72981000000E+07	2.65022092085E-02	-2.40159000745E+01	-1.30368020636E+01	-4.56672891100E+01	-6.82747692552E+01	3.14089929484E+01	-2.33469847180E-02	-4.47455215345E+01
5.82980666667E+07	2.99987414260E-02	-2.41894168016E+01	-1.26977816804E+01	-4.62744117090E+01	-7.67622977941E+01	-1.24909427823E+02	-3.97359423104E-03	-4.56528108568E+01
5.92980333333E+07	2.69683910131E-02	-2.48015691891E+01	-1.23826597151E+01	-4.70583698680E+01	-7.43506612983E+01	-1.55645674184E+02	-2.67144981747E-02	-4.63252119914E+01
6.02980000000E+07	3.92086716963E-02	-2.52616773485E+01	-1.20476754400E+01	-4.78070017573E+01	-6.52999869269E+01	1.13467059453E+02	1.48450620356E-02	-4.70933645157E+01
6.12979666667E+07	4.22517780977E-03	-2.55020746119E+01	-1.17171384645E+01	-4.80915745795E+01	-7.15069799309E+01	-2.46532826206E+01	-1.13498481445E-02	-4.79494915907E+01
6.22979333333E+07	1.86691965934E-02	-2.59205656844E+01	-1.13887332735E+01	-4.88709270261E+01	-6.64017640653E+01	1.10696859665E+02	1.56417885040E-02	-4.86002389821E+01
6.32979000000E+07	8.93827695668E-04	-2.64751718428E+01	-1.10929018380E+01	-4.98510420611E+01	-6.61345243827E+01	1.19847452317E+02	-8.90075400722E-03	-4.93301415337E+01
6.42978666667E+07	-4.77316542449E-03	-2.66808731827E+01	-1.07565536364E+01	-5.03414388118E+01	-7.65663665187E+01	5.56702205454E+01	-3.09944929720E-02	-5.03068060496E+01
6.52978333333E+07	4.24237813072E-02	-2.71342029894E+01	-1.04249445303E+01	-5.10894139510E+01	-7.55819795480E+01	-4.44899925010E+01	-3.85640206495E-02	-5.09707962163E+01
6.62978000000E+07	2.11604965195E-02	-2.76627802091E+01	-1.00938283410E+01	-5.18869904225E+01	-6.79367833404E+01	-8.67243819566E+01	4.29002532318E-04	-5.18784697439E+01
6.72977666667E+07	1.88357024008E-02	-2.81468793202E+01	-9.80839528025E+00	-5.27167296052E+01	-7.88840628113E+01	-1.29839660774E+02	-4.57451676944E-02	-5.25625676823E+01
6.82977333333E+07	3.02027625557E-02	-2.84797660830E+01	-9.45399071538E+00	-5.32452910141E+01	-7.07688653970E+01	1.03079319552E+02	-1.45141108610E-02	-5.33331306485E+01
6.92977000000E+07	2.33826043266E-02	-2.87859682569E+01	-9.18245757568E+00	-5.39568158169E+01	-7.11658155273E+01	5.50574098705E+01	-7.41961830521E-02	-5.41943172239E+01
7.02976666667E+07	4.70825841589E-02	-2.92031179142E+01	-8.84743400949E+00	-5.42995467974E+01	-6.72446021212E+01	-1.26817225563E+02	-5.12396535298E-02	-5.49033113127E+01
7.12976333333E+07	2.51241220408E-02	-2.97472726014E+01	-8.58084124815E+00	-5.50957919045E+01	-6.83795065644E+01	-7.38535072154E+01	-5.18781766689E-02	-5.56290600300E+01
7.22976000000E+07	-2.96121613028E-04	-3.00411225177E+01	-8.29607704957E+00	-5.61273822233E+01	-6.89543849609E+01	-1.33818481776E+02	-8.76632473008E-02	-5.63786255294E+01
7.32975666667E+07	6.09302462464E-03	-3.06253882750E+01	-7.97068589895E+00	-5.70407243929E+01	-7.19448721600E+01	1.46751497465E+02	-5.67156099796E-02	-5.72596061097E+01
7.42975333333E+07	9.98281977384E-03	-3.09540177373E+01	-7.69192391095E+00	-5.77454556217E+01	-7.15278515570E+01	2.79755586921E+00	-9.77379315017E-02	-5.81613894717E+01
7.52975000000E+07	3.76124772333E-02	-3.13250325032E+01	-7.34514240380E+00	-5.84313235530E+01	-7.03596124361E+01	1.20128238506E+01	-7.34215975127E-02	-5.87143354784E+01
7.62974666667E+07	5.27884620093E-02	-3.16894418190E+01	-7.04242379248E+00	-5.93418667667E+01	-7.37920706754E+01	-1.23820326280E+02	-4.43580069029E-02	-5.97088092856E+01
7.72974333333E+07	3.44301503370E-02	-3.21585107284E+01	-6.78891122449E+00	-6.02258847859E+01	-7.69463368266E+01	1.56828245621E+02	-9.00487973964E-02	-6.03419421038E+01
7.82974000000E+07	5.84886815228E-03	-3.24085224178E+01	-6.49991881053E+00	-6.07059934498E+01	-6.29762998103E+01	1.11849630851E+02	-8.81667454567E-02	-6.13900595828E+01
7.92973666667E+07	1.80484378450E-02	-3.29424337153E+01	-6.24595892217E+00	-6.18831967121E+01	-7.20523992753E+01	1.46959848572E+02	-1.03554773457E-01	-6.20887972108E+01
8.02973333333E+07	3.85275493971E-03	-3.33624084888E+01	-5.93378987159E+00	-6.24201294436E+01	-7.51108263416E+01	-1.87101707591E+01	-1.15562448516E-01	-6.27401156348E+01
8.12973000000E+07	1.90684769342E-02	-3.37714670380E+01	-5.65893631148E+00	-6.32838598765E+01	-6.75478814957E+01	1.47051433121E+02	-9.39737024544E-02	-6.37955099259E+01
8.22972666667E+07	5.15523345781E-02	-3.41432042956E+01	-5.34306800932E+00	-6.42152727041E+01	-7.45098751600E+01	1.56582362147E+02	-1.51663108230E-01	-6.43037775027E+01
8.32972333333E+07	2.93042763490E-02	-3.45237782390E+01	-5.07586737249E+00	-6.48845058347E+01	-6.87540065407E+01	1.61956482381E+02	-1.01140432981E-01	-6.50772211650E+01
8.42972000000E+07	8.77821924228E-03	-3.47208352232E+01	-4.79963420424E+00	-6.55443338229E+01	-6.93293116482E+01	-1.69007929707E+02	-1.39915003415E-01	-6.61021350704E+01
8.52971666667E+07	3.26482568132E-02	-3.52340007435E+01	-4.49017279859E+00	-6.65197128015E+01	-6.83691613187E+01	1.25827833572E+02	-1.56791697556E-01	-6.66670729409E+01
8.62971333333E+07	6.28998254544E-02	-3.57226090705E+01	-4.17204565971E+00	-6.74537033621E+01	-6.69265937080E+01	-7.77250989018E+01	-1.34419509073E-01	-6.74824660753E+01
8.72971000000E+07	4.89581773816E-02	-3.59933816992E+01	-3.90120881447E+00	-6.84299502414E+01	-7.52027868197E+01	-1.47623735576E+02	-1.66458477509E-01	-6.84291465799E+01
8.82970666667E+07	1.34757689983E-02	-3.65773986910E+01	-3.66443857354E+00	-6.92031199086E+01	-7.22151898781E+01	1.68716565167E+02	-1.68727646306E-01	-6.94722091969E+01
8.92970333333E+07	3.13104563774E-02	-3.69083026014E+01	-3.35412721322E+00	-7.01046963620E+01	-6.22461724186E+01	-1.73001865474E+02	-1.83663044597E-01	-7.01331640588E+01
9.02970000000E+07	5.36300219194E-02	-3.74028721050E+01	-3.09312081263E+00	-7.10234734283E+01	-6.73692239257E+01	1.51058245608E+02	-1.84088215444E-01	-7.09391788663E+01
9.12969666667E+07	9.82440035936E-03	-3.77758215931E+01	-2.82371370715E+00	-7.20074491419E+01	-6.47873038860E+01	-1.50247854742E+02	-1.99342573065E-01	-7.16761136668E+01
9.22969333333E+07	2.07290030929E-02	-3.81263508163E+01	-2.52662644964E+00	-7.28146642861E+01	-6.83624161694E+01	1.09443088473E+02	-2.38775537178E-01	-7.26811299192E+01
9.32969000000E+07	4.42813776003E-02	-3.84214842491E+01	-2.25559682765E+00	-7.38873240269E+01	-7.03552679148E+01	1.71123502721E+02	-2.55517596775E-01	-7.34264618988E+01
9.42968666667E+07	9.60077013660E-03	-3.90040485892E+01	-1.99577360537E+00	-7.48389594290E+01	-6.83904663905E+01	1.55094054537E+02	-2.84044267814E-01	-7.44204697453E+01
9.52968333333E+07	5.56391255481E-02	-3.93824230937E+01	-1.68178203383E+00	-7.60930115875E+01	-7.37874651038E+01	-1.45913504717E+02	-2.51198675864E-01	-7.54233914120E+01
9.62968000000E+07	4.06211723772E-02	-3.97009170593E+01	-1.40630495722E+00	-7.69424971444E+01	-6.92074648511E+01	1.45917442975E+02	-2.76751048285E-01	-7.60389063738E+01
9.72967666667E+07	1.94137378061E-02	-4.00813392937E+01	-1.16021444269E+00	-7.80232871151E+01	-9.57860088044E+01	-7.43803427447E+01	-3.10954279376E-01	-7.71363474960E+01
9.82967333333E+07	2.69798768281E-02	-4.05752519780E+01	-8.73983004716E-01	-7.90173029397E+01	-6.43066049314E+01	-1.62827077338E+02	-3.20759907608E-01	-7.81133506902E+01
9.92967000000E+07	2.36873686251E-02	-4.07989039191E+01	-5.66845721308E-01	-7.99633327271E+01	-6.76668656770E+01	1.56921685869E+02	-3.37749754511E-01	-7.88740331470E+01
1.00296666667E+08	3.94732616145E-02	-4.12016952570E+01	-2.88866877198E-01	-8.08811100279E+01	-6.82234913596E+01	-1.56029877080E+02	-3.28569831456E-01	-7.96185470618E+01
1.01296633333E+08	4.56525590430E-02	-4.18043454585E+01	8.54910577563E-03	-8.23173069774E+01	-6.02820299004E+01	-1.76036250418E+02	-3.78838162182E-01	-8.05981472078E+01
1.02296600000E+08	5.02243863672E-02	-4.21247691218E+01	2.83092802878E-01	-8.30697448265E+01	-6.67103298752E+01	1.60638589234E+02	-4.17694790236E-01	-8.14305032355E+01
1.03296566667E+08	2.28201941601E-02	-4.25057745432E+01	5.34614897095E-01	-8.44284311341E+01	-7.24260607528E+01	1.43537274925E+02	-4.55625984001E-01	-8.23089995135E+01
1.04296533333E+08	3.45686557053E-02	-4.28006184723E+01	8.16546551157E-01	-8.55135164125E+01	-6.73454248982E+01	-1.69612213504E+02	-4.97416730411E-01	-8.32050547388E+01
1.05296500000E+08	3.09198340693E-02	-4.33126862129E+01	1.12466433193E+00	-8.68955668944E+01	-7.40674875994E+01	-1.59110722342E+02	-5.04942246177E-01	-8.42824781545E+01
1.06296466667E+08	6.76429908594E-02	-4.37114592179E+01	1.42185598641E+00	-8.78337561984E+01	-6.80462639776E+01	1.79618603303E+02	-5.44514504135E-01	-8.54801459827E+01
1.07296433333E+08	2.43113014600E-02	-4.41150747024E+01	1.67762388378E+00	-8.92025502996E+01	-8.58078677930E+01	1.35025186368E+02	-5.97033647053E-01	-8.63203635674E+01
1.08296400000E+08	4.96180271011E-02	-4.45934192498E+01	1.96522748152E+00	-9.06425130033E+01	-6.57315032218E+01	-1.52945080281E+02	-6.28704403795E-01	-8.72038729581E+01
1.09296366667E+08	3.38180415791E-02	-4.47703519561E+01	2.25904123714E+00	-9.17877041847E+01	-6.77593778079E+01	-1.35179763278E+02	-6.54761768882E-01	-8.81520866514E+01
1.10296333333E+08	2.84297403783E-02	-4.53923036073E+01	2.54350623289E+00	-9.36061764449E+01	-6.37952837474E+01	1.74014793140E+02	-7.46273409158E-01	-8.90254569378E+01
1.11296300000E+08	1.15786493456E-02	-4.55259014995E+01	2.81963391197E+00	-9.46147982141E+01	-6.40048617704E+01	-1.46823546262E+02	-7.77603112045E-01	-9.00752945317E+01
1.12296266667E+08	3.57580613347E-02	-4.62054847905E+01	3.11687995744E+00	-9.61010890329E+01	-6.82273722376E+01	-1.68892806461E+02	-8.36290821748E-01	-9.12114487131E+01
1.13296233333E+08	4.77608223400E-02	-4.64659759504E+01	3.41617067585E+00	-9.76946721851E+01	-6.41320772430E+01	1.42824918557E+02	-8.99109150173E-01	-9.21931761982E+01
1.14296200000E+08	6.09683339016E-02	-4.68902800236E+01	3.69342975099E+00	-9.92023033573E+01	-6.16842312984E+01	1.78973118402E+02	-9.76338500094E-01	-9.30337807184E+01
1.15296166667E+08	2.95041516441E-02	-4.73168989975E+01	3.98638696880E+00	-1.00741373251E+02	-6.97518922232E+01	-1.47845852017E+02	-1.03202786812E+00	-9.42042141909E+01
1.16296133333E+08	3.30290495129E-02	-4.77730643433E+01	4.28574868666E+00	-1.02417952823E+02	-6.53233574393E+01	1.76248616854E+02	-1.13020373231E+00	-9.51290401819E+01
