# Hz S DB R 50
! CMT, SC5090, 24087134, 25.3.3/4
! Date: 14.12.2025 16:07:41
! Data: Format (Calibration Info)
! Freq	S11:dB/Ang(F1)
7.50000000000E+08	-1.36623796195E-01	1.14926140050E+02
7.50250000000E+08	-1.36731350245E-01	1.14875369991E+02
7.50500000000E+08	-1.36478904239E-01	1.14830894807E+02
7.50750000000E+08	-1.39752642354E-01	1.14788157197E+02
7.51000000000E+08	-1.37091226110E-01	1.14734575359E+02
7.51250000000E+08	-1.37418690272E-01	1.14700494179E+02
7.51500000000E+08	-1.36418868812E-01	1.14642870483E+02
7.51750000000E+08	-1.35261894132E-01	1.14601783130E+02
7.52000000000E+08	-1.36058907914E-01	1.14566022767E+02
7.52250000000E+08	-1.36445615516E-01	1.14523831452E+02
7.52500000000E+08	-1.36644263686E-01	1.14474403055E+02
7.52750000000E+08	-1.31985644760E-01	1.14429908556E+02
7.53000000000E+08	-1.34315868030E-01	1.14391808302E+02
7.53250000000E+08	-1.34288930011E-01	1.14349286400E+02
7.53500000000E+08	-1.36064497055E-01	1.14303719140E+02
7.53750000000E+08	-1.34105356828E-01	1.14264620704E+02
7.54000000000E+08	-1.35222516122E-01	1.14229213543E+02
7.54250000000E+08	-1.34322582478E-01	1.14174517626E+02
7.54500000000E+08	-1.33141729270E-01	1.14129485566E+02
7.54750000000E+08	-1.32932673070E-01	1.14107103379E+02
7.55000000000E+08	-1.34607667308E-01	1.14046362474E+02
7.55250000000E+08	-1.32309279317E-01	1.14004980558E+02
7.55500000000E+08	-1.31717414177E-01	1.13971314422E+02
7.55750000000E+08	-1.32401343439E-01	1.13922675231E+02
7.56000000000E+08	-1.30427900777E-01	1.13901877647E+02
7.56250000000E+08	-1.32684188658E-01	1.13849351317E+02
7.56500000000E+08	-1.32062816156E-01	1.13791390772E+02
7.56750000000E+08	-1.32140387571E-01	1.13756387833E+02
7.57000000000E+08	-1.30509547607E-01	1.13724233165E+02
7.57250000000E+08	-1.31447200024E-01	1.13680177983E+02
7.57500000000E+08	-1.29781361639E-01	1.13634866560E+02
7.57750000000E+08	-1.29878631513E-01	1.13606700118E+02
7.58000000000E+08	-1.29134639568E-01	1.13543098606E+02
7.58250000000E+08	-1.29099246810E-01	1.13518010723E+02
7.58500000000E+08	-1.29614571690E-01	1.13457882056E+02
7.58750000000E+08	-1.27965171492E-01	1.13430085756E+02
7.59000000000E+08	-1.29528651702E-01	1.13396149882E+02
7.59250000000E+08	-1.27968725631E-01	1.13358947612E+02
7.59500000000E+08	-1.28844757340E-01	1.13313406627E+02
7.59750000000E+08	-1.26682598102E-01	1.13257651640E+02
7.60000000000E+08	-1.28253116097E-01	1.13208646313E+02
7.60250000000E+08	-1.29417157989E-01	1.13163785337E+02
7.60500000000E+08	-1.29562352595E-01	1.13131094230E+02
7.60750000000E+08	-1.30148477656E-01	1.13110214389E+02
7.61000000000E+08	-1.28342739041E-01	1.13075461815E+02
7.61250000000E+08	-1.28664376460E-01	1.13037656548E+02
7.61500000000E+08	-1.25124043347E-01	1.12997511678E+02
7.61750000000E+08	-1.23183757743E-01	1.12940060815E+02
7.62000000000E+08	-1.26512768691E-01	1.12919243423E+02
7.62250000000E+08	-1.25339817533E-01	1.12871679422E+02
7.62500000000E+08	-1.24297979993E-01	1.12815172424E+02
7.62750000000E+08	-1.24760671681E-01	1.12794727625E+02
7.63000000000E+08	-1.24234706636E-01	1.12741185603E+02
7.63250000000E+08	-1.26093330649E-01	1.12707263479E+02
7.63500000000E+08	-1.25266574311E-01	1.12680065808E+02
7.63750000000E+08	-1.25642290168E-01	1.12628054742E+02
7.64000000000E+08	-1.25562962620E-01	1.12575871311E+02
7.64250000000E+08	-1.24309222138E-01	1.12542086173E+02
7.64500000000E+08	-1.24205731104E-01	1.12510154709E+02
7.64750000000E+08	-1.23280970693E-01	1.12477606992E+02
7.65000000000E+08	-1.24565662829E-01	1.12436290725E+02
7.65250000000E+08	-1.23801975901E-01	1.12397326030E+02
7.65500000000E+08	-1.23521881158E-01	1.12357427683E+02
7.65750000000E+08	-1.23651541488E-01	1.12307827667E+02
7.66000000000E+08	-1.24812838300E-01	1.12270075070E+02
7.66250000000E+08	-1.23351708584E-01	1.12245033951E+02
7.66500000000E+08	-1.24255548981E-01	1.12194490205E+02
7.66750000000E+08	-1.25994114687E-01	1.12157895933E+02
7.67000000000E+08	-1.23186533742E-01	1.12129332860E+02
7.67250000000E+08	-1.23674171767E-01	1.12079465833E+02
7.67500000000E+08	-1.23442112172E-01	1.12040049505E+02
7.67750000000E+08	-1.24932787214E-01	1.12031432371E+02
7.68000000000E+08	-1.26630953376E-01	1.11974505804E+02
7.68250000000E+08	-1.24225371178E-01	1.11926787090E+02
7.68500000000E+08	-1.26152808823E-01	1.11901570847E+02
7.68750000000E+08	-1.23939641036E-01	1.11858787895E+02
7.69000000000E+08	-1.23249720734E-01	1.11813830721E+02
7.69250000000E+08	-1.22334030396E-01	1.11785360645E+02
7.69500000000E+08	-1.23663888753E-01	1.11734885014E+02
7.69750000000E+08	-1.23573156073E-01	1.11699973012E+02
7.70000000000E+08	-1.24571100239E-01	1.11663500673E+02
7.70250000000E+08	-1.21955287601E-01	1.11618290922E+02
7.70500000000E+08	-1.24307109016E-01	1.11564112801E+02
7.70750000000E+08	-1.21874153851E-01	1.11525563824E+02
7.71000000000E+08	-1.22465264721E-01	1.11509090532E+02
7.71250000000E+08	-1.23078658075E-01	1.11465248330E+02
7.71500000000E+08	-1.23016531103E-01	1.11419205188E+02
7.71750000000E+08	-1.24254764328E-01	1.11388733773E+02
7.72000000000E+08	-1.23728830900E-01	1.11356094586E+02
7.72250000000E+08	-1.25211564800E-01	1.11317399642E+02
7.72500000000E+08	-1.24470049493E-01	1.11280705264E+02
7.72750000000E+08	-1.22127306173E-01	1.11241340121E+02
7.73000000000E+08	-1.22848107369E-01	1.11186378859E+02
7.73250000000E+08	-1.21607676919E-01	1.11153228851E+02
7.73500000000E+08	-1.22816613448E-01	1.11115438016E+02
7.73750000000E+08	-1.24593988050E-01	1.11066986720E+02
7.74000000000E+08	-1.21983486925E-01	1.11051284017E+02
7.74250000000E+08	-1.21976949614E-01	1.11014122758E+02
7.74500000000E+08	-1.22579779827E-01	1.10968211009E+02
7.74750000000E+08	-1.22196714582E-01	1.10922792247E+02
7.75000000000E+08	-1.21492355296E-01	1.10878390382E+02
7.75250000000E+08	-1.23907003388E-01	1.10845531251E+02
7.75500000000E+08	-1.24627066436E-01	1.10815976852E+02
7.75750000000E+08	-1.22185191424E-01	1.10768803015E+02
7.76000000000E+08	-1.23976822404E-01	1.10745554902E+02
7.76250000000E+08	-1.23535382887E-01	1.10690115844E+02
7.76500000000E+08	-1.19226158848E-01	1.10643598335E+02
7.76750000000E+08	-1.23185983588E-01	1.10617235932E+02
7.77000000000E+08	-1.22564856953E-01	1.10589244842E+02
7.77250000000E+08	-1.22016673811E-01	1.10525211656E+02
7.77500000000E+08	-1.22298122378E-01	1.10509021850E+02
7.77750000000E+08	-1.22789207942E-01	1.10454620086E+02
7.78000000000E+08	-1.21288129065E-01	1.10407668313E+02
7.78250000000E+08	-1.22221917030E-01	1.10375411281E+02
7.78500000000E+08	-1.24154335877E-01	1.10349268319E+02
7.78750000000E+08	-1.23311893726E-01	1.10322469577E+02
7.79000000000E+08	-1.23216478913E-01	1.10280006873E+02
7.79250000000E+08	-1.22860620033E-01	1.10223497332E+02
7.79500000000E+08	-1.21825769590E-01	1.10201955879E+02
7.79750000000E+08	-1.20211493251E-01	1.10149234771E+02
7.80000000000E+08	-1.25144312976E-01	1.10130101293E+02
7.80250000000E+08	-1.20733583389E-01	1.10082950483E+02
7.80500000000E+08	-1.22588106762E-01	1.10034320623E+02
7.80750000000E+08	-1.22360874259E-01	1.09992673558E+02
7.81000000000E+08	-1.19380324138E-01	1.09963872977E+02
7.81250000000E+08	-1.21769002985E-01	1.09917652381E+02
7.81500000000E+08	-1.24213897157E-01	1.09897539103E+02
7.81750000000E+08	-1.20035522030E-01	1.09852087318E+02
7.82000000000E+08	-1.23855931702E-01	1.09799055045E+02
7.82250000000E+08	-1.20989262606E-01	1.09764735265E+02
7.82500000000E+08	-1.21023690890E-01	1.09745894522E+02
7.82750000000E+08	-1.22761201735E-01	1.09706505542E+02
7.83000000000E+08	-1.20343468468E-01	1.09660938391E+02
7.83250000000E+08	-1.20115843810E-01	1.09646701901E+02
7.83500000000E+08	-1.24299699161E-01	1.09571552634E+02
7.83750000000E+08	-1.19220272014E-01	1.09545125308E+02
7.84000000000E+08	-1.21479756918E-01	1.09514458420E+02
7.84250000000E+08	-1.19960486957E-01	1.09468565515E+02
7.84500000000E+08	-1.20690700413E-01	1.09431300413E+02
7.84750000000E+08	-1.20493060444E-01	1.09390940970E+02
7.85000000000E+08	-1.18729535621E-01	1.09360656675E+02
7.85250000000E+08	-1.20435904223E-01	1.09312166791E+02
7.85500000000E+08	-1.21254840258E-01	1.09263020015E+02
7.85750000000E+08	-1.21035944303E-01	1.09237827216E+02
7.86000000000E+08	-1.22560599805E-01	1.09185508352E+02
7.86250000000E+08	-1.20587308029E-01	1.09171742335E+02
7.86500000000E+08	-1.21572517445E-01	1.09123158788E+02
7.86750000000E+08	-1.20216489307E-01	1.09080491168E+02
7.87000000000E+08	-1.20063265194E-01	1.09057852048E+02
7.87250000000E+08	-1.19556841154E-01	1.09013748496E+02
7.87500000000E+08	-1.20990320804E-01	1.08981058207E+02
7.87750000000E+08	-1.20715107316E-01	1.08946371916E+02
7.88000000000E+08	-1.17861589726E-01	1.08901952337E+02
7.88250000000E+08	-1.21389963167E-01	1.08874049367E+02
7.88500000000E+08	-1.20069519045E-01	1.08812584363E+02
7.88750000000E+08	-1.19778259287E-01	1.08778429407E+02
7.89000000000E+08	-1.19920085493E-01	1.08757414505E+02
7.89250000000E+08	-1.17971179192E-01	1.08720135414E+02
7.89500000000E+08	-1.19272897547E-01	1.08680792320E+02
7.89750000000E+08	-1.19588170896E-01	1.08645312379E+02
7.90000000000E+08	-1.19090625122E-01	1.08604358281E+02
7.90250000000E+08	-1.19599616690E-01	1.08556993724E+02
7.90500000000E+08	-1.21722365577E-01	1.08512265757E+02
7.90750000000E+08	-1.21294222198E-01	1.08492605017E+02
7.91000000000E+08	-1.21180848441E-01	1.08448172827E+02
7.91250000000E+08	-1.20026030266E-01	1.08414950023E+02
7.91500000000E+08	-1.20346528949E-01	1.08383774151E+02
7.91750000000E+08	-1.19797297025E-01	1.08353784717E+02
7.92000000000E+08	-1.18546710722E-01	1.08299054111E+02
7.92250000000E+08	-1.18833875931E-01	1.08268235233E+02
7.92500000000E+08	-1.16715526768E-01	1.08238865854E+02
7.92750000000E+08	-1.21670307584E-01	1.08206117970E+02
7.93000000000E+08	-1.20149469227E-01	1.08182309804E+02
7.93250000000E+08	-1.18159236690E-01	1.08114196671E+02
7.93500000000E+08	-1.19835121395E-01	1.08059139177E+02
7.93750000000E+08	-1.21422113694E-01	1.08030650996E+02
7.94000000000E+08	-1.16377452316E-01	1.07995454710E+02
7.94250000000E+08	-1.17674566142E-01	1.07959983574E+02
7.94500000000E+08	-1.16885190185E-01	1.07921090220E+02
7.94750000000E+08	-1.20541855328E-01	1.07893826640E+02
7.95000000000E+08	-1.17665553529E-01	1.07852875932E+02
7.95250000000E+08	-1.16588840301E-01	1.07819984967E+02
7.95500000000E+08	-1.15558614749E-01	1.07759640452E+02
7.95750000000E+08	-1.17225237218E-01	1.07725240218E+02
7.96000000000E+08	-1.19664776003E-01	1.07711650563E+02
7.96250000000E+08	-1.15481921196E-01	1.07667631490E+02
7.96500000000E+08	-1.16637895583E-01	1.07627281685E+02
7.96750000000E+08	-1.18517263419E-01	1.07604861835E+02
7.97000000000E+08	-1.17599761457E-01	1.07549849209E+02
7.97250000000E+08	-1.20236899933E-01	1.07511756175E+02
7.97500000000E+08	-1.16807549506E-01	1.07476814690E+02
7.97750000000E+08	-1.14591041786E-01	1.07433404989E+02
7.98000000000E+08	-1.16344184612E-01	1.07416292767E+02
7.98250000000E+08	-1.18162753587E-01	1.07377843978E+02
7.98500000000E+08	-1.13943162374E-01	1.07354040543E+02
7.98750000000E+08	-1.13982021945E-01	1.07308516843E+02
7.99000000000E+08	-1.14417665684E-01	1.07259908618E+02
7.99250000000E+08	-1.14504164384E-01	1.07215124070E+02
7.99500000000E+08	-1.11976797880E-01	1.07210316979E+02
7.99750000000E+08	-1.14413390684E-01	1.07155607706E+02
8.00000000000E+08	-1.14470380201E-01	1.07127288759E+02
8.00250000000E+08	-1.13596090794E-01	1.07078038177E+02
8.00500000000E+08	-1.12660146159E-01	1.07039453872E+02
8.00750000000E+08	-1.08998078110E-01	1.07009357959E+02
8.01000000000E+08	-1.12279398615E-01	1.06996794899E+02
8.01250000000E+08	-1.12756107119E-01	1.06956908410E+02
8.01500000000E+08	-1.10434967544E-01	1.06904954174E+02
8.01750000000E+08	-1.14503262195E-01	1.06895011652E+02
8.02000000000E+08	-1.10825352251E-01	1.06849152370E+02
8.02250000000E+08	-1.10073958919E-01	1.06803822352E+02
8.02500000000E+08	-1.13002265615E-01	1.06768260439E+02
8.02750000000E+08	-1.10154176139E-01	1.06740181057E+02
8.03000000000E+08	-1.10368928371E-01	1.06693547695E+02
8.03250000000E+08	-1.09106315534E-01	1.06670003101E+02
8.03500000000E+08	-1.08174265013E-01	1.06626758186E+02
8.03750000000E+08	-1.09948660075E-01	1.06615560520E+02
8.04000000000E+08	-1.11614556164E-01	1.06532914576E+02
8.04250000000E+08	-1.10420840233E-01	1.06532870275E+02
8.04500000000E+08	-1.10632440770E-01	1.06492903375E+02
8.04750000000E+08	-1.07730700939E-01	1.06459613681E+02
8.05000000000E+08	-1.09482872685E-01	1.06437386883E+02
8.05250000000E+08	-1.07967607754E-01	1.06380026575E+02
8.05500000000E+08	-1.07533938754E-01	1.06351368126E+02
8.05750000000E+08	-1.09075150141E-01	1.06322141562E+02
8.06000000000E+08	-1.10852010339E-01	1.06271224518E+02
8.06250000000E+08	-1.11288068130E-01	1.06230102877E+02
8.06500000000E+08	-1.08474346263E-01	1.06222105235E+02
8.06750000000E+08	-1.10502667911E-01	1.06182280688E+02
8.07000000000E+08	-1.10443405173E-01	1.06130198887E+02
8.07250000000E+08	-1.08818740710E-01	1.06117177890E+02
8.07500000000E+08	-1.09242894784E-01	1.06071074986E+02
8.07750000000E+08	-1.06023172508E-01	1.06053047278E+02
8.08000000000E+08	-1.09042069245E-01	1.06033842393E+02
8.08250000000E+08	-1.08259498440E-01	1.05970822456E+02
8.08500000000E+08	-1.09041304114E-01	1.05945543395E+02
8.08750000000E+08	-1.08731662427E-01	1.05910166710E+02
8.09000000000E+08	-1.10352757346E-01	1.05879361205E+02
8.09250000000E+08	-1.07555713863E-01	1.05844650623E+02
8.09500000000E+08	-1.06709393465E-01	1.05803320463E+02
8.09750000000E+08	-1.06955607215E-01	1.05790185267E+02
8.10000000000E+08	-1.06554761880E-01	1.05729200417E+02
8.10250000000E+08	-1.09095605867E-01	1.05701071593E+02
8.10500000000E+08	-1.07755110349E-01	1.05676434866E+02
8.10750000000E+08	-1.06227413140E-01	1.05656179184E+02
8.11000000000E+08	-1.08503274533E-01	1.05624685313E+02
8.11250000000E+08	-1.06835959642E-01	1.05580153912E+02
8.11500000000E+08	-1.05059973559E-01	1.05536324549E+02
8.11750000000E+08	-1.07100558983E-01	1.05507530875E+02
8.12000000000E+08	-1.06585612281E-01	1.05482964578E+02
8.12250000000E+08	-1.04973425547E-01	1.05447850863E+02
8.12500000000E+08	-1.08058114166E-01	1.05399251130E+02
8.12750000000E+08	-1.04528312571E-01	1.05383307435E+02
8.13000000000E+08	-1.05402951284E-01	1.05365806878E+02
8.13250000000E+08	-1.04248582727E-01	1.05320192771E+02
8.13500000000E+08	-1.03810415882E-01	1.05285468216E+02
8.13750000000E+08	-1.03785550784E-01	1.05286733092E+02
8.14000000000E+08	-1.05585131414E-01	1.05240997688E+02
8.14250000000E+08	-1.03970650235E-01	1.05186123537E+02
8.14500000000E+08	-1.07206958060E-01	1.05165917733E+02
8.14750000000E+08	-1.05637540336E-01	1.05121117946E+02
8.15000000000E+08	-1.03085646142E-01	1.05102423952E+02
8.15250000000E+08	-1.03420182437E-01	1.05062512312E+02
8.15500000000E+08	-1.02430827149E-01	1.05033350527E+02
8.15750000000E+08	-1.03306473716E-01	1.05003749028E+02
8.16000000000E+08	-1.03465600826E-01	1.04975950781E+02
8.16250000000E+08	-1.03947088221E-01	1.04957661524E+02
8.16500000000E+08	-1.04833144923E-01	1.04911601227E+02
8.16750000000E+08	-1.02423016588E-01	1.04873010214E+02
8.17000000000E+08	-1.01465044504E-01	1.04852585624E+02
8.17250000000E+08	-1.04581372473E-01	1.04821459362E+02
8.17500000000E+08	-1.03066696134E-01	1.04774046048E+02
8.17750000000E+08	-1.03422757139E-01	1.04753947690E+02
8.18000000000E+08	-1.02127833773E-01	1.04724097039E+02
8.18250000000E+08	-1.02561988256E-01	1.04693402383E+02
8.18500000000E+08	-1.00964210979E-01	1.04650384392E+02
8.18750000000E+08	-1.00682474434E-01	1.04630472610E+02
8.19000000000E+08	-1.00387961027E-01	1.04595313412E+02
8.19250000000E+08	-1.02688474532E-01	1.04555512947E+02
8.19500000000E+08	-1.01007373007E-01	1.04549357867E+02
8.19750000000E+08	-9.98596810860E-02	1.04515306960E+02
8.20000000000E+08	-1.00321402503E-01	1.04484866710E+02
8.20250000000E+08	-1.01907874687E-01	1.04442683431E+02
8.20500000000E+08	-9.91836170290E-02	1.04409613919E+02
8.20750000000E+08	-1.02047829586E-01	1.04392648397E+02
8.21000000000E+08	-1.01220938032E-01	1.04333665800E+02
8.21250000000E+08	-1.01130327988E-01	1.04320206928E+02
8.21500000000E+08	-1.01759335505E-01	1.04297999133E+02
8.21750000000E+08	-9.66187037774E-02	1.04258787953E+02
8.22000000000E+08	-9.91300659549E-02	1.04227695276E+02
8.22250000000E+08	-9.99456966237E-02	1.04216178305E+02
8.22500000000E+08	-1.00013295234E-01	1.04155871618E+02
8.22750000000E+08	-1.02097777747E-01	1.04149546443E+02
8.23000000000E+08	-1.00010743998E-01	1.04137877234E+02
8.23250000000E+08	-9.95039490171E-02	1.04080921947E+02
8.23500000000E+08	-1.00923290528E-01	1.04063547405E+02
8.23750000000E+08	-9.81756876771E-02	1.04037869452E+02
8.24000000000E+08	-9.99629148750E-02	1.03987848558E+02
8.24250000000E+08	-1.00355921849E-01	1.03989345528E+02
8.24500000000E+08	-1.00276177882E-01	1.03950683800E+02
8.24750000000E+08	-9.95986936813E-02	1.03918980775E+02
8.25000000000E+08	-9.89240102296E-02	1.03898156699E+02
8.25250000000E+08	-9.79549153361E-02	1.03856747441E+02
8.25500000000E+08	-9.88583419331E-02	1.03844695529E+02
8.25750000000E+08	-9.80064324044E-02	1.03798935242E+02
8.26000000000E+08	-1.00809414307E-01	1.03785925201E+02
8.26250000000E+08	-9.95097127693E-02	1.03747926529E+02
8.26500000000E+08	-9.94620421198E-02	1.03722321232E+02
8.26750000000E+08	-1.00008820600E-01	1.03693939491E+02
8.27000000000E+08	-9.82369257398E-02	1.03674293729E+02
8.27250000000E+08	-9.97652281616E-02	1.03625677192E+02
8.27500000000E+08	-9.88908872169E-02	1.03594758586E+02
8.27750000000E+08	-9.73962766159E-02	1.03585478991E+02
8.28000000000E+08	-9.98829711011E-02	1.03557429242E+02
8.28250000000E+08	-9.88404406090E-02	1.03522638240E+02
8.28500000000E+08	-9.62806081326E-02	1.03486261386E+02
8.28750000000E+08	-1.00134955339E-01	1.03493882796E+02
8.29000000000E+08	-9.90889691533E-02	1.03434449295E+02
8.29250000000E+08	-9.79080344436E-02	1.03409273121E+02
8.29500000000E+08	-1.01966174502E-01	1.03359378779E+02
8.29750000000E+08	-9.85509616996E-02	1.03361821817E+02
8.30000000000E+08	-9.82878174960E-02	1.03312878739E+02
8.30250000000E+08	-9.76390616338E-02	1.03293464275E+02
8.30500000000E+08	-1.00470552313E-01	1.03272148074E+02
8.30750000000E+08	-9.91172083584E-02	1.03229921361E+02
8.31000000000E+08	-9.81138828411E-02	1.03226560339E+02
8.31250000000E+08	-9.97397620511E-02	1.03182129926E+02
8.31500000000E+08	-9.80558279925E-02	1.03162401425E+02
8.31750000000E+08	-9.91286491195E-02	1.03123479819E+02
8.32000000000E+08	-1.00281997982E-01	1.03103079646E+02
8.32250000000E+08	-9.86774654088E-02	1.03082340550E+02
8.32500000000E+08	-9.73378370966E-02	1.03027083955E+02
8.32750000000E+08	-9.62925098996E-02	1.03015290190E+02
8.33000000000E+08	-9.64554397189E-02	1.02984775535E+02
8.33250000000E+08	-9.94267042288E-02	1.02967582797E+02
8.33500000000E+08	-1.01318000101E-01	1.02944604396E+02
8.33750000000E+08	-9.69423134197E-02	1.02907188913E+02
8.34000000000E+08	-9.69059016998E-02	1.02900754691E+02
8.34250000000E+08	-9.75858567734E-02	1.02855983663E+02
8.34500000000E+08	-9.79814744817E-02	1.02819865346E+02
8.34750000000E+08	-9.79996525305E-02	1.02797236407E+02
8.35000000000E+08	-9.84865103260E-02	1.02776709306E+02
8.35250000000E+08	-9.79987615034E-02	1.02745493369E+02
8.35500000000E+08	-9.67381222173E-02	1.02725269729E+02
8.35750000000E+08	-1.01625857710E-01	1.02693911174E+02
8.36000000000E+08	-1.00355535378E-01	1.02683173509E+02
8.36250000000E+08	-9.75384165493E-02	1.02644780507E+02
8.36500000000E+08	-9.81371063826E-02	1.02611703063E+02
8.36750000000E+08	-9.90907105772E-02	1.02569811790E+02
8.37000000000E+08	-9.80983033665E-02	1.02548942286E+02
8.37250000000E+08	-9.79589191010E-02	1.02525891840E+02
8.37500000000E+08	-9.63441789658E-02	1.02506083452E+02
8.37750000000E+08	-9.75937246566E-02	1.02465748559E+02
8.38000000000E+08	-9.79955522070E-02	1.02443124846E+02
8.38250000000E+08	-9.92452456471E-02	1.02417589801E+02
8.38500000000E+08	-1.01025547440E-01	1.02399347144E+02
8.38750000000E+08	-9.66077904015E-02	1.02360802585E+02
8.39000000000E+08	-9.82124490458E-02	1.02330766258E+02
8.39250000000E+08	-9.89720279791E-02	1.02303816564E+02
8.39500000000E+08	-9.95483937317E-02	1.02274181797E+02
8.39750000000E+08	-9.98307658489E-02	1.02236180299E+02
8.40000000000E+08	-1.00736289552E-01	1.02221250488E+02
