# Hz S DB R 50
! CMT, SC5090, 24087134, 25.3.3/4
! Date: 14.11.2025 17:30:36
! Data: Format (Calibration Info)
! Freq	S11:dB/Ang(F2)	S21:dB/Ang(F2)	S12:dB/Ang(F2)	S22:dB/Ang(F2)
3.00000000000E+05	-9.45874732208E+00	-1.79089139035E+02	-3.37323399950E+00	-2.24112579836E-01	-3.42689263911E+00	-2.11396124047E-01	-9.41157097685E+00	-1.79558520021E+02
1.29996666667E+06	-9.41315678860E+00	-1.79356470424E+02	-3.40821933631E+00	-5.30219273297E-01	-3.42791453125E+00	-6.28783320110E-01	-9.38217594588E+00	-1.79490985285E+02
2.29993333333E+06	-9.40777545078E+00	-1.79166693710E+02	-3.41647873553E+00	-9.20407051766E-01	-3.44026183015E+00	-1.02460507935E+00	-9.38617757776E+00	-1.79224500487E+02
3.29990000000E+06	-9.40552863883E+00	-1.78964570126E+02	-3.42499690756E+00	-1.32612168441E+00	-3.44204746906E+00	-1.42088455205E+00	-9.38926667114E+00	-1.79015431673E+02
4.29986666667E+06	-9.40371949049E+00	-1.78783154506E+02	-3.42956234834E+00	-1.71791164180E+00	-3.44548259136E+00	-1.83883094560E+00	-9.38890670527E+00	-1.78845032085E+02
5.29983333333E+06	-9.39769465545E+00	-1.78563924364E+02	-3.43290970407E+00	-2.16375493772E+00	-3.44618137090E+00	-2.27725611871E+00	-9.38223396716E+00	-1.78689003421E+02
6.29980000000E+06	-9.39257408876E+00	-1.78338106105E+02	-3.43555320050E+00	-2.57336697747E+00	-3.45130138600E+00	-2.68266248821E+00	-9.38046074563E+00	-1.78434304207E+02
7.29976666667E+06	-9.38409075805E+00	-1.78102570132E+02	-3.43617812006E+00	-2.97530615941E+00	-3.45041751033E+00	-3.06214448230E+00	-9.37610613581E+00	-1.78189233807E+02
8.29973333333E+06	-9.37062858661E+00	-1.77883441001E+02	-3.44040784195E+00	-3.36515047164E+00	-3.44842732428E+00	-3.47980337457E+00	-9.36309580457E+00	-1.77976968674E+02
9.29970000000E+06	-9.36583834148E+00	-1.77668066269E+02	-3.44406259226E+00	-3.78966066011E+00	-3.45251985024E+00	-3.87164609971E+00	-9.35408854902E+00	-1.77752088965E+02
1.02996666667E+07	-9.34931776181E+00	-1.77430709091E+02	-3.44060912839E+00	-4.17285232272E+00	-3.44926165401E+00	-4.27209590181E+00	-9.34450024532E+00	-1.77502390472E+02
1.12996333333E+07	-9.33904443751E+00	-1.77209275528E+02	-3.44616025887E+00	-4.58381143915E+00	-3.45097356977E+00	-4.72097474966E+00	-9.32990741400E+00	-1.77285152698E+02
1.22996000000E+07	-9.32188652685E+00	-1.76977977640E+02	-3.44435981021E+00	-4.97791163359E+00	-3.45195157400E+00	-5.10741714985E+00	-9.32065120907E+00	-1.77077958366E+02
1.32995666667E+07	-9.31023300261E+00	-1.76759213813E+02	-3.44593748599E+00	-5.39395489948E+00	-3.45385538464E+00	-5.52565669506E+00	-9.30736425123E+00	-1.76848697870E+02
1.42995333333E+07	-9.29229774236E+00	-1.76536928898E+02	-3.44699606915E+00	-5.80816113638E+00	-3.45469331159E+00	-5.96511562520E+00	-9.29027362251E+00	-1.76639930162E+02
1.52995000000E+07	-9.27522990503E+00	-1.76318338108E+02	-3.44579459443E+00	-6.20498406294E+00	-3.45691471953E+00	-6.36330522599E+00	-9.27459999491E+00	-1.76417083111E+02
1.62994666667E+07	-9.26205584856E+00	-1.76096086957E+02	-3.44889515239E+00	-6.63488373410E+00	-3.45764153388E+00	-6.75077997493E+00	-9.25803680463E+00	-1.76191303914E+02
1.72994333333E+07	-9.24439505627E+00	-1.75858281509E+02	-3.45258216673E+00	-7.02520841569E+00	-3.46025261825E+00	-7.16546910216E+00	-9.24177769410E+00	-1.75970722094E+02
1.82994000000E+07	-9.22442328075E+00	-1.75667930698E+02	-3.45280130105E+00	-7.45331889117E+00	-3.46157626780E+00	-7.57387279712E+00	-9.22324589128E+00	-1.75767440826E+02
1.92993666667E+07	-9.20826872429E+00	-1.75445346269E+02	-3.45343959877E+00	-7.85505988670E+00	-3.46161062741E+00	-7.98702505002E+00	-9.20162431993E+00	-1.75545899286E+02
2.02993333333E+07	-9.18238879402E+00	-1.75207221979E+02	-3.45681886565E+00	-8.25328876769E+00	-3.46433468370E+00	-8.41825521282E+00	-9.18515255995E+00	-1.75343040994E+02
2.12993000000E+07	-9.16586719008E+00	-1.75014539271E+02	-3.45978443097E+00	-8.68148900264E+00	-3.47111317628E+00	-8.83171388919E+00	-9.16332913255E+00	-1.75138708530E+02
2.22992666667E+07	-9.14420669163E+00	-1.74810477967E+02	-3.46315555547E+00	-9.09279065754E+00	-3.47174477538E+00	-9.24436689691E+00	-9.14283435996E+00	-1.74922628806E+02
2.32992333333E+07	-9.12307473532E+00	-1.74602145231E+02	-3.46617620032E+00	-9.48862249217E+00	-3.47336806286E+00	-9.67256593887E+00	-9.11898851683E+00	-1.74738057621E+02
2.42992000000E+07	-9.10246190183E+00	-1.74410481198E+02	-3.47012957348E+00	-9.93919593545E+00	-3.47838608070E+00	-1.00881268925E+01	-9.09967428789E+00	-1.74549586818E+02
2.52991666667E+07	-9.07878828650E+00	-1.74201436964E+02	-3.47170269852E+00	-1.03252590267E+01	-3.47996952381E+00	-1.04735847973E+01	-9.07305671819E+00	-1.74321885106E+02
2.62991333333E+07	-9.05688068863E+00	-1.73997423114E+02	-3.47494740691E+00	-1.07523765819E+01	-3.48166595393E+00	-1.08911610350E+01	-9.05009114111E+00	-1.74133518845E+02
2.72991000000E+07	-9.02795157464E+00	-1.73818504121E+02	-3.47433837803E+00	-1.11538356335E+01	-3.48628414039E+00	-1.13132690202E+01	-9.02488125658E+00	-1.73946259779E+02
2.82990666667E+07	-9.00353858174E+00	-1.73629600580E+02	-3.48482791086E+00	-1.15738935261E+01	-3.48866174155E+00	-1.17338220315E+01	-8.99919792398E+00	-1.73764563696E+02
2.92990333333E+07	-8.97678136258E+00	-1.73426534161E+02	-3.48283197014E+00	-1.19766944880E+01	-3.49351569701E+00	-1.21288663143E+01	-8.97277400503E+00	-1.73555834492E+02
3.02990000000E+07	-8.95179073590E+00	-1.73240692924E+02	-3.48796486239E+00	-1.23985328361E+01	-3.49828098265E+00	-1.25500725013E+01	-8.94712135236E+00	-1.73396148540E+02
3.12989666667E+07	-8.92352645998E+00	-1.73073455456E+02	-3.49217772559E+00	-1.28149105987E+01	-3.50241785773E+00	-1.29532358782E+01	-8.92122134319E+00	-1.73203749510E+02
3.22989333333E+07	-8.89444091633E+00	-1.72855776238E+02	-3.49673439995E+00	-1.31918887021E+01	-3.50618797465E+00	-1.33677126489E+01	-8.89028515684E+00	-1.73021947574E+02
3.32989000000E+07	-8.87019400854E+00	-1.72695533347E+02	-3.50057199050E+00	-1.36196099563E+01	-3.50969055961E+00	-1.37902634274E+01	-8.86069163154E+00	-1.72879286287E+02
3.42988666667E+07	-8.83760683145E+00	-1.72539230207E+02	-3.50391127684E+00	-1.40346664285E+01	-3.51581998300E+00	-1.42053823678E+01	-8.83091563846E+00	-1.72670910342E+02
3.52988333333E+07	-8.81119927609E+00	-1.72381803798E+02	-3.51118909010E+00	-1.44433741135E+01	-3.51903352641E+00	-1.45996208387E+01	-8.80191091091E+00	-1.72500052786E+02
3.62988000000E+07	-8.77870869248E+00	-1.72201305497E+02	-3.51517235744E+00	-1.48457429443E+01	-3.52380872653E+00	-1.50067787447E+01	-8.77169840289E+00	-1.72340103354E+02
3.72987666667E+07	-8.75142960203E+00	-1.72055388058E+02	-3.51867973816E+00	-1.52594352797E+01	-3.52897261655E+00	-1.54225394136E+01	-8.73942805431E+00	-1.72181136948E+02
3.82987333333E+07	-8.71995859219E+00	-1.71881721998E+02	-3.52622487198E+00	-1.56590016780E+01	-3.53415555832E+00	-1.58234419566E+01	-8.71073143268E+00	-1.72047105690E+02
3.92987000000E+07	-8.69039697218E+00	-1.71715534345E+02	-3.53011291677E+00	-1.60814112897E+01	-3.53811530880E+00	-1.62527099206E+01	-8.67607134360E+00	-1.71881488273E+02
4.02986666667E+07	-8.65715332248E+00	-1.71571594124E+02	-3.53647826973E+00	-1.64925341489E+01	-3.54382746737E+00	-1.66533646300E+01	-8.64566877167E+00	-1.71749998790E+02
4.12986333333E+07	-8.62242276172E+00	-1.71427646599E+02	-3.53969291044E+00	-1.68926544769E+01	-3.55060444184E+00	-1.70522264579E+01	-8.61447478456E+00	-1.71575902039E+02
4.22986000000E+07	-8.59071268054E+00	-1.71293529670E+02	-3.54566050410E+00	-1.72782274299E+01	-3.55286123895E+00	-1.74379660651E+01	-8.58006973487E+00	-1.71421604530E+02
4.32985666667E+07	-8.55723612717E+00	-1.71165631001E+02	-3.55096753970E+00	-1.77044190950E+01	-3.56022463750E+00	-1.78584093077E+01	-8.54695203480E+00	-1.71311757675E+02
4.42985333333E+07	-8.52344754093E+00	-1.71030424287E+02	-3.55857350960E+00	-1.81075001289E+01	-3.56792299158E+00	-1.82738503646E+01	-8.51668484200E+00	-1.71169065138E+02
4.52985000000E+07	-8.49226839003E+00	-1.70867870044E+02	-3.56409775381E+00	-1.84938786663E+01	-3.57053843783E+00	-1.86764265168E+01	-8.47720587000E+00	-1.71055369343E+02
4.62984666667E+07	-8.45779800251E+00	-1.70770847350E+02	-3.56923368621E+00	-1.89130939614E+01	-3.57857653338E+00	-1.90766137315E+01	-8.44748520506E+00	-1.70919562121E+02
4.72984333333E+07	-8.42008234268E+00	-1.70630937810E+02	-3.57286254231E+00	-1.93026512655E+01	-3.58173500389E+00	-1.94808434793E+01	-8.41262991981E+00	-1.70819508960E+02
4.82984000000E+07	-8.38734005421E+00	-1.70532660682E+02	-3.58341567083E+00	-1.97264414296E+01	-3.59293668457E+00	-1.98725052445E+01	-8.37632517996E+00	-1.70674883492E+02
4.92983666667E+07	-8.35067372693E+00	-1.70427257263E+02	-3.58916397062E+00	-2.01614152979E+01	-3.59886399692E+00	-2.02887288702E+01	-8.34261792331E+00	-1.70562827050E+02
5.02983333333E+07	-8.31710521379E+00	-1.70295359517E+02	-3.59651154058E+00	-2.05370839190E+01	-3.60376033172E+00	-2.07064843224E+01	-8.30411987146E+00	-1.70475741808E+02
5.12983000000E+07	-8.28117023267E+00	-1.70201735195E+02	-3.60226646500E+00	-2.09150596125E+01	-3.61131111820E+00	-2.11000603984E+01	-8.26603404596E+00	-1.70376738348E+02
5.22982666667E+07	-8.24325577242E+00	-1.70108122567E+02	-3.60683973075E+00	-2.13526735183E+01	-3.61665377860E+00	-2.15030289733E+01	-8.23242378256E+00	-1.70295437028E+02
5.32982333333E+07	-8.20750784398E+00	-1.70015985192E+02	-3.61654884990E+00	-2.17325555099E+01	-3.62231656868E+00	-2.19070325858E+01	-8.19326950646E+00	-1.70207187145E+02
5.42982000000E+07	-8.17132853460E+00	-1.69927429726E+02	-3.61778080443E+00	-2.21392867785E+01	-3.62987635929E+00	-2.23012797615E+01	-8.15479182293E+00	-1.70084280882E+02
5.52981666667E+07	-8.13532452863E+00	-1.69860461944E+02	-3.62874157723E+00	-2.25585406092E+01	-3.63830417179E+00	-2.27085067824E+01	-8.11939093337E+00	-1.70029303706E+02
5.62981333333E+07	-8.09984130647E+00	-1.69781355403E+02	-3.63546598035E+00	-2.29582514995E+01	-3.64480035504E+00	-2.31391551774E+01	-8.08094839450E+00	-1.69971326738E+02
5.72981000000E+07	-8.06017951722E+00	-1.69715320125E+02	-3.64281000953E+00	-2.33342198935E+01	-3.65060620377E+00	-2.35003414819E+01	-8.04534416549E+00	-1.69874717152E+02
5.82980666667E+07	-8.02136890763E+00	-1.69655552643E+02	-3.64993452777E+00	-2.37489683463E+01	-3.65775991938E+00	-2.39096365831E+01	-8.00499021994E+00	-1.69812368833E+02
5.92980333333E+07	-7.98358695647E+00	-1.69611773830E+02	-3.65855710531E+00	-2.41671205209E+01	-3.66463080344E+00	-2.43062428214E+01	-7.96753201053E+00	-1.69779933840E+02
6.02980000000E+07	-7.94584567308E+00	-1.69577404140E+02	-3.66274094955E+00	-2.45547575469E+01	-3.67442532308E+00	-2.47149076468E+01	-7.93086485720E+00	-1.69694584016E+02
6.12979666667E+07	-7.90686626951E+00	-1.69492093466E+02	-3.67237598300E+00	-2.49495522325E+01	-3.68012752954E+00	-2.51077570664E+01	-7.89286334443E+00	-1.69675781857E+02
6.22979333333E+07	-7.86953979181E+00	-1.69459843830E+02	-3.67877160000E+00	-2.53665777910E+01	-3.68787125231E+00	-2.54937902001E+01	-7.85181385952E+00	-1.69618325664E+02
6.32979000000E+07	-7.83085511285E+00	-1.69426879368E+02	-3.68535964052E+00	-2.57578121677E+01	-3.69619811345E+00	-2.59084789282E+01	-7.81374727901E+00	-1.69575982193E+02
6.42978666667E+07	-7.78997056490E+00	-1.69388457437E+02	-3.69514579380E+00	-2.61346115134E+01	-3.70697816202E+00	-2.63075621677E+01	-7.77744973046E+00	-1.69551829608E+02
6.52978333333E+07	-7.75307223963E+00	-1.69375815246E+02	-3.70307529798E+00	-2.65620787662E+01	-3.71168204876E+00	-2.66936158657E+01	-7.73492398735E+00	-1.69511717254E+02
6.62978000000E+07	-7.71676459382E+00	-1.69342383844E+02	-3.71130657556E+00	-2.69304853541E+01	-3.72042143123E+00	-2.71127525390E+01	-7.69822469237E+00	-1.69496893702E+02
6.72977666667E+07	-7.67607784807E+00	-1.69335261675E+02	-3.71959999481E+00	-2.73268642463E+01	-3.72840088157E+00	-2.75096566612E+01	-7.65961008882E+00	-1.69485827526E+02
6.82977333333E+07	-7.63450480373E+00	-1.69306331160E+02	-3.72699507644E+00	-2.77232099043E+01	-3.73728980844E+00	-2.78939220995E+01	-7.62166258091E+00	-1.69469864894E+02
6.92977000000E+07	-7.59824659579E+00	-1.69285573194E+02	-3.73740595505E+00	-2.81250221472E+01	-3.74428015060E+00	-2.82905432300E+01	-7.58250428730E+00	-1.69454586103E+02
7.02976666667E+07	-7.56075324754E+00	-1.69310130551E+02	-3.74421075743E+00	-2.85288210627E+01	-3.75554536599E+00	-2.86826768032E+01	-7.54464249734E+00	-1.69458265293E+02
7.12976333333E+07	-7.51998174458E+00	-1.69306626163E+02	-3.75297562934E+00	-2.89097128887E+01	-3.76381171350E+00	-2.90736667056E+01	-7.50721330971E+00	-1.69468718179E+02
7.22976000000E+07	-7.48173368223E+00	-1.69319820005E+02	-3.76335558778E+00	-2.93363748396E+01	-3.77283390789E+00	-2.94762111849E+01	-7.46509950495E+00	-1.69470292073E+02
7.32975666667E+07	-7.44434333874E+00	-1.69317564704E+02	-3.77116337399E+00	-2.96973146578E+01	-3.78248998859E+00	-2.98804615090E+01	-7.42758293874E+00	-1.69496790499E+02
7.42975333333E+07	-7.40263554433E+00	-1.69350072004E+02	-3.77857234481E+00	-3.01105351001E+01	-3.78993457424E+00	-3.02683154795E+01	-7.39034671594E+00	-1.69503470729E+02
7.52975000000E+07	-7.36439418210E+00	-1.69353540737E+02	-3.79023764328E+00	-3.04878418554E+01	-3.80028860551E+00	-3.06687772100E+01	-7.34970056348E+00	-1.69516834521E+02
7.62974666667E+07	-7.32479015712E+00	-1.69398062948E+02	-3.79631655416E+00	-3.09031164472E+01	-3.80844379581E+00	-3.10734513555E+01	-7.30909385689E+00	-1.69552302603E+02
7.72974333333E+07	-7.28465178802E+00	-1.69444806087E+02	-3.80442903998E+00	-3.13027513636E+01	-3.81840354774E+00	-3.14515637058E+01	-7.27108283420E+00	-1.69555038531E+02
7.82974000000E+07	-7.24501270188E+00	-1.69448915098E+02	-3.81616181398E+00	-3.16706509812E+01	-3.82738724857E+00	-3.18594737682E+01	-7.23090292111E+00	-1.69608227090E+02
7.92973666667E+07	-7.20758102749E+00	-1.69496980679E+02	-3.82472619576E+00	-3.20745016877E+01	-3.83640262674E+00	-3.22409619137E+01	-7.19538544419E+00	-1.69641811253E+02
8.02973333333E+07	-7.16832693049E+00	-1.69561755709E+02	-3.83508075669E+00	-3.24813419465E+01	-3.84560530406E+00	-3.26292226292E+01	-7.15606648644E+00	-1.69675275312E+02
8.12973000000E+07	-7.12786454542E+00	-1.69604641163E+02	-3.84377037808E+00	-3.28538467237E+01	-3.85731506042E+00	-3.30183866261E+01	-7.11715070250E+00	-1.69723684474E+02
8.22972666667E+07	-7.09004907698E+00	-1.69643402824E+02	-3.85316838619E+00	-3.32546179681E+01	-3.86290505950E+00	-3.34132272642E+01	-7.07773581390E+00	-1.69776899858E+02
8.32972333333E+07	-7.04941723121E+00	-1.69700489755E+02	-3.86031345550E+00	-3.36324770736E+01	-3.87355769262E+00	-3.38168299989E+01	-7.03934155350E+00	-1.69832602076E+02
8.42972000000E+07	-7.01198521986E+00	-1.69742707139E+02	-3.87495292792E+00	-3.40260824523E+01	-3.88548124950E+00	-3.41992123912E+01	-6.99928134098E+00	-1.69887425235E+02
8.52971666667E+07	-6.97376168985E+00	-1.69821216963E+02	-3.88495801273E+00	-3.44259427601E+01	-3.89581328400E+00	-3.45785774963E+01	-6.96178657253E+00	-1.69952908662E+02
8.62971333333E+07	-6.93309775971E+00	-1.69879225509E+02	-3.89415358615E+00	-3.48258406804E+01	-3.90312064808E+00	-3.49646479528E+01	-6.92163882237E+00	-1.69997225145E+02
8.72971000000E+07	-6.89284068654E+00	-1.69945698499E+02	-3.90281949072E+00	-3.52132074963E+01	-3.91364046161E+00	-3.53481851729E+01	-6.88418171890E+00	-1.70077117375E+02
8.82970666667E+07	-6.85522925715E+00	-1.70004330781E+02	-3.91218594718E+00	-3.56012079781E+01	-3.92578595815E+00	-3.57532558458E+01	-6.84333965385E+00	-1.70143173231E+02
8.92970333333E+07	-6.81539768971E+00	-1.70090944047E+02	-3.92385165191E+00	-3.59903338316E+01	-3.93466756953E+00	-3.61524956344E+01	-6.80694025281E+00	-1.70219370214E+02
9.02970000000E+07	-6.77468414846E+00	-1.70176708131E+02	-3.93475361500E+00	-3.63754242731E+01	-3.94749764509E+00	-3.65235246815E+01	-6.76704012590E+00	-1.70297221886E+02
9.12969666667E+07	-6.73614137706E+00	-1.70245652353E+02	-3.94256710872E+00	-3.67645442808E+01	-3.95369146174E+00	-3.69203313024E+01	-6.72684476941E+00	-1.70381679853E+02
9.22969333333E+07	-6.69966432898E+00	-1.70327774386E+02	-3.95691630222E+00	-3.71412607861E+01	-3.96764161465E+00	-3.73060203770E+01	-6.68965345829E+00	-1.70455418302E+02
9.32969000000E+07	-6.65924642311E+00	-1.70387193675E+02	-3.96587186490E+00	-3.75286831020E+01	-3.98004599162E+00	-3.76803819205E+01	-6.65264272948E+00	-1.70532714645E+02
9.42968666667E+07	-6.62062261196E+00	-1.70476587402E+02	-3.97676026490E+00	-3.79168135351E+01	-3.98905982738E+00	-3.80728467474E+01	-6.61497140800E+00	-1.70630052234E+02
9.52968333333E+07	-6.58239653976E+00	-1.70566628377E+02	-3.98761531975E+00	-3.82864187064E+01	-4.00225175533E+00	-3.84553657004E+01	-6.57605815750E+00	-1.70736219611E+02
9.62968000000E+07	-6.54256121705E+00	-1.70660808454E+02	-3.99489319460E+00	-3.86672969645E+01	-4.01091258044E+00	-3.88240195801E+01	-6.53595195232E+00	-1.70812828158E+02
9.72967666667E+07	-6.50389985774E+00	-1.70752361450E+02	-4.00658548137E+00	-3.90575121005E+01	-4.02221828963E+00	-3.92110701310E+01	-6.49716829386E+00	-1.70905083563E+02
9.82967333333E+07	-6.46668523885E+00	-1.70853946168E+02	-4.02058515095E+00	-3.94262067255E+01	-4.03582597484E+00	-3.96077872063E+01	-6.45921872742E+00	-1.71019576908E+02
9.92967000000E+07	-6.42725960042E+00	-1.70955877253E+02	-4.02883949959E+00	-3.98091756227E+01	-4.04491469453E+00	-3.99705109450E+01	-6.42013162866E+00	-1.71103061507E+02
1.00296666667E+08	-6.38902542550E+00	-1.71058786130E+02	-4.04323870349E+00	-4.02027177889E+01	-4.05514227377E+00	-4.03527775817E+01	-6.38576334599E+00	-1.71209828236E+02
1.01296633333E+08	-6.34933215694E+00	-1.71140495554E+02	-4.05395293717E+00	-4.05796468974E+01	-4.07087690841E+00	-4.07323322717E+01	-6.34567773722E+00	-1.71323065695E+02
1.02296600000E+08	-6.31440498989E+00	-1.71257314097E+02	-4.06649911367E+00	-4.09602436722E+01	-4.07827946276E+00	-4.11143954006E+01	-6.30534827532E+00	-1.71424486504E+02
1.03296566667E+08	-6.27310322733E+00	-1.71370685691E+02	-4.07652258164E+00	-4.13551909168E+01	-4.09336516514E+00	-4.15059845847E+01	-6.27232093735E+00	-1.71527429057E+02
1.04296533333E+08	-6.23970349038E+00	-1.71465783889E+02	-4.08784668046E+00	-4.16894398746E+01	-4.10659301661E+00	-4.18726601529E+01	-6.23526073857E+00	-1.71615528920E+02
1.05296500000E+08	-6.20262068626E+00	-1.71565180518E+02	-4.10187081870E+00	-4.20923046551E+01	-4.11564443969E+00	-4.22430313275E+01	-6.19453823184E+00	-1.71760816637E+02
1.06296466667E+08	-6.16502105811E+00	-1.71675508481E+02	-4.11117611717E+00	-4.24493513026E+01	-4.12786814374E+00	-4.26265248608E+01	-6.16069579823E+00	-1.71868950420E+02
1.07296433333E+08	-6.12673924168E+00	-1.71795786638E+02	-4.12378463551E+00	-4.28170794949E+01	-4.13698870892E+00	-4.29932146656E+01	-6.12191218750E+00	-1.71982133584E+02
1.08296400000E+08	-6.09128826291E+00	-1.71906285495E+02	-4.13703640068E+00	-4.32083979330E+01	-4.15344285698E+00	-4.33857055242E+01	-6.08660915443E+00	-1.72113564426E+02
1.09296366667E+08	-6.05441493593E+00	-1.72031530906E+02	-4.14635705256E+00	-4.35928852573E+01	-4.16366849286E+00	-4.37602617278E+01	-6.04929906896E+00	-1.72238162316E+02
1.10296333333E+08	-6.02117732330E+00	-1.72160586615E+02	-4.16113717146E+00	-4.39462371481E+01	-4.17019785120E+00	-4.41215199410E+01	-6.00919031998E+00	-1.72342192111E+02
1.11296300000E+08	-5.98034120022E+00	-1.72296919659E+02	-4.17109684669E+00	-4.43144148980E+01	-4.18649361678E+00	-4.45015360983E+01	-5.97439586632E+00	-1.72467744718E+02
1.12296266667E+08	-5.94569040749E+00	-1.72394795946E+02	-4.18241653506E+00	-4.46960234512E+01	-4.19788894734E+00	-4.48636623719E+01	-5.93601553811E+00	-1.72610301071E+02
1.13296233333E+08	-5.91060619470E+00	-1.72534992584E+02	-4.19539592862E+00	-4.50692526222E+01	-4.21102259924E+00	-4.52327529161E+01	-5.90307351192E+00	-1.72719360660E+02
1.14296200000E+08	-5.87511987565E+00	-1.72648890765E+02	-4.21060602151E+00	-4.54509215608E+01	-4.22136424618E+00	-4.56116689347E+01	-5.86676035681E+00	-1.72866073941E+02
1.15296166667E+08	-5.84086114771E+00	-1.72768979858E+02	-4.22172390219E+00	-4.58165894303E+01	-4.23510510530E+00	-4.59820098145E+01	-5.82978171521E+00	-1.72989657526E+02
