# Hz S DB R 50
! CMT, SC5090, 24087134, 25.3.3/4
! Date: 12.12.2025 15:33:01
! Data: Format (Calibration Info)
! Freq	S11:dB/Ang(F2)	S21:dB/Ang(F2)	S12:dB/Ang(F2)	S22:dB/Ang(F2)
4.00000000000E+05	-4.72161101193E+01	-1.02377131413E+02	1.06170491877E-01	-1.24629101912E-02	5.36540378484E-02	-5.29877973573E-02	-5.07358960086E+01	-1.28626109902E+02
1.53980000000E+07	-4.43828349337E+01	1.76209986746E+02	6.58299956329E-02	-6.03318208098E-01	5.58196233176E-02	-8.49494188236E-01	-4.41086964243E+01	1.73010659524E+02
3.03960000000E+07	-4.23260888380E+01	1.66899903876E+02	7.15164949478E-02	-1.35621127727E+00	5.87747495250E-02	-1.59617695957E+00	-4.25861527749E+01	1.63772136271E+02
4.53940000000E+07	-4.21455718391E+01	1.66359161041E+02	7.22504882847E-02	-2.11724482179E+00	5.74560745118E-02	-2.35601027316E+00	-4.28673708432E+01	1.60054020476E+02
6.03920000000E+07	-4.38073096272E+01	1.66562446368E+02	6.72719412520E-02	-2.86324882079E+00	5.91144805029E-02	-3.10024725531E+00	-4.52800879423E+01	1.60600993060E+02
7.53900000000E+07	-4.53398787476E+01	1.60294386429E+02	6.40036217768E-02	-3.59686587659E+00	5.53963314627E-02	-3.84669813419E+00	-4.67324217501E+01	1.56556864797E+02
9.03880000000E+07	-4.46682851132E+01	1.46717592845E+02	6.60055606865E-02	-4.37583106294E+00	5.47442717736E-02	-4.58791348601E+00	-4.50345784681E+01	1.41887065056E+02
1.05386000000E+08	-4.28066660108E+01	1.41456013905E+02	6.18109159763E-02	-5.11106983335E+00	5.41962436955E-02	-5.32849832492E+00	-4.23181029906E+01	1.38193228941E+02
1.20384000000E+08	-4.26848572311E+01	1.38747479534E+02	5.77471215121E-02	-5.84875495758E+00	4.95528781652E-02	-6.08291328289E+00	-4.14359663043E+01	1.37981617380E+02
1.35382000000E+08	-4.42612418586E+01	1.33952714613E+02	5.58080600234E-02	-6.58695355201E+00	4.83542527252E-02	-6.82139620694E+00	-4.26850467827E+01	1.39354037965E+02
1.50380000000E+08	-4.62246224593E+01	1.22404835811E+02	5.40454064105E-02	-7.33692162501E+00	4.82133895006E-02	-7.58068521405E+00	-4.55017050390E+01	1.32058226278E+02
1.65378000000E+08	-4.46802194035E+01	1.14550124738E+02	5.00400857297E-02	-8.10235654210E+00	4.39705208023E-02	-8.30988766515E+00	-4.51696817793E+01	1.16646735128E+02
1.80376000000E+08	-4.14665701810E+01	1.15785619609E+02	4.73509139430E-02	-8.83321645389E+00	4.10088179926E-02	-9.02696697908E+00	-4.17930722931E+01	1.09275618214E+02
1.95374000000E+08	-4.02543711013E+01	1.14443609492E+02	4.59095745012E-02	-9.55723964423E+00	3.82283691545E-02	-9.79212864776E+00	-4.00917720649E+01	1.07062464268E+02
2.10372000000E+08	-4.21400360745E+01	1.12417532526E+02	4.08229170731E-02	-1.02849009620E+01	3.51093095795E-02	-1.05208388637E+01	-4.17140906600E+01	1.09438611192E+02
2.25370000000E+08	-4.61553478989E+01	1.07182921904E+02	4.22161173615E-02	-1.10469639024E+01	3.41511164574E-02	-1.12569528339E+01	-4.59152006852E+01	1.13568679157E+02
2.40368000000E+08	-4.69680732240E+01	1.01865293683E+02	3.82620806148E-02	-1.17719893974E+01	2.69363266262E-02	-1.19917619370E+01	-4.76613338708E+01	1.10598050275E+02
2.55366000000E+08	-4.30401602917E+01	1.03421147487E+02	3.82388704122E-02	-1.25143485687E+01	3.03915193289E-02	-1.27192702155E+01	-4.36804688890E+01	9.89480699332E+01
2.70364000000E+08	-4.16577260304E+01	1.00692329721E+02	3.56413434833E-02	-1.32187857493E+01	2.28788682280E-02	-1.34589314613E+01	-4.06489031183E+01	9.57679545825E+01
2.85362000000E+08	-4.39248361597E+01	9.33640006136E+01	3.42451536186E-02	-1.39479427594E+01	2.10050667965E-02	-1.41826499727E+01	-4.19728250848E+01	1.02337385153E+02
3.00360000000E+08	-4.94970691966E+01	7.21618505629E+01	3.23466174190E-02	-1.46932007386E+01	1.35117353324E-02	-1.49391947818E+01	-4.57585891125E+01	1.21469528497E+02
3.15358000000E+08	-4.96368355320E+01	5.77567036308E+01	2.57105808146E-02	-1.54217015192E+01	1.29143618830E-02	-1.56460321914E+01	-4.78869147297E+01	1.23890212692E+02
3.30356000000E+08	-4.40870283069E+01	7.51944752859E+01	2.45586419295E-02	-1.61431409465E+01	9.63066105783E-03	-1.63808402287E+01	-4.44652710757E+01	9.10679217503E+01
3.45354000000E+08	-4.10357101654E+01	8.05114401097E+01	2.21984443005E-02	-1.68816688479E+01	8.48381979055E-03	-1.70963015233E+01	-4.04077383832E+01	8.12595743208E+01
3.60352000000E+08	-4.24902295447E+01	7.85242857418E+01	2.19352392349E-02	-1.75887791001E+01	5.02135387720E-03	-1.78045763394E+01	-4.11665794036E+01	8.42530000627E+01
3.75350000000E+08	-4.92176761977E+01	6.60532291117E+01	1.82344712891E-02	-1.83204938840E+01	1.81887186279E-03	-1.85412916348E+01	-4.65349723522E+01	1.02991817099E+02
3.90348000000E+08	-5.33622755280E+01	3.83257225025E+01	1.52330963872E-02	-1.90605176724E+01	-4.47082043289E-03	-1.92800450401E+01	-5.20066319245E+01	1.28580079309E+02
4.05346000000E+08	-4.65097557572E+01	6.00700942790E+01	1.63787912569E-02	-1.97759165270E+01	-4.18816782375E-03	-1.99919696543E+01	-4.85920702746E+01	7.72193229489E+01
4.20344000000E+08	-4.16200994686E+01	6.62238012203E+01	1.11468915052E-02	-2.04982862664E+01	-8.70830992795E-03	-2.07145811167E+01	-4.12420160800E+01	6.25434355867E+01
4.35342000000E+08	-4.18872736845E+01	6.77829080207E+01	1.07657198827E-02	-2.12157336335E+01	-6.31577047655E-03	-2.14245031599E+01	-4.06618952076E+01	6.51613152225E+01
4.50340000000E+08	-4.74576387983E+01	5.81888099637E+01	1.00497876240E-02	-2.19209262025E+01	-1.28966678411E-02	-2.21391008035E+01	-4.54293067156E+01	7.96670091408E+01
4.65338000000E+08	-5.37552749686E+01	7.38943813885E+00	7.70486677967E-03	-2.26689453303E+01	-1.56884152057E-02	-2.28584542910E+01	-5.52577816661E+01	1.21919001610E+02
4.80336000000E+08	-4.77921816246E+01	3.00182145329E+01	5.19519505108E-03	-2.33956409768E+01	-1.86007611012E-02	-2.36188111214E+01	-5.48338522040E+01	5.30143154154E+01
4.95334000000E+08	-4.21522753851E+01	4.73133193904E+01	4.00344344483E-03	-2.41204123125E+01	-1.96635870987E-02	-2.43442161449E+01	-4.26994443286E+01	4.14937943464E+01
5.10332000000E+08	-4.11201493188E+01	5.35028080936E+01	1.54866885208E-03	-2.48384105635E+01	-2.29815531434E-02	-2.50469599261E+01	-4.01883940371E+01	4.72624879242E+01
5.25330000000E+08	-4.55145549281E+01	5.54104378903E+01	-3.37251501550E-03	-2.55403202276E+01	-2.62129984816E-02	-2.57402044605E+01	-4.32476708971E+01	5.62597770901E+01
5.40328000000E+08	-5.35930022806E+01	3.26699610233E+01	-6.80723644571E-03	-2.62618477864E+01	-3.14842433843E-02	-2.64696585204E+01	-5.33076581718E+01	8.33374202207E+01
5.55326000000E+08	-4.93761080994E+01	2.04260250618E+01	-8.39505028975E-03	-2.69884762299E+01	-3.54887707705E-02	-2.71820960076E+01	-5.62143940776E+01	3.57996468896E+01
5.70324000000E+08	-4.30457457903E+01	3.67354586017E+01	-9.84633824755E-03	-2.77172646263E+01	-3.91547335974E-02	-2.79058953400E+01	-4.38717533146E+01	3.05978632107E+01
5.85322000000E+08	-4.09335307377E+01	4.31736040043E+01	-8.48302257714E-03	-2.84233341210E+01	-3.75337168286E-02	-2.86056563590E+01	-4.00843143842E+01	3.99431531137E+01
6.00320000000E+08	-4.41359828933E+01	3.99653989889E+01	-8.92812810466E-03	-2.91333013234E+01	-4.01673288218E-02	-2.93086391050E+01	-4.20208946557E+01	5.12677149272E+01
6.15318000000E+08	-5.16181008920E+01	2.32106532405E+01	-1.29514668626E-02	-2.98414712821E+01	-4.02369917982E-02	-3.00152879157E+01	-4.97306850708E+01	6.98880979919E+01
6.30316000000E+08	-4.99720551719E+01	6.00371319588E+00	-1.32723571665E-02	-3.05952353754E+01	-4.61039007348E-02	-3.07723864054E+01	-5.56586561119E+01	2.06142551981E+01
6.45314000000E+08	-4.28278270828E+01	2.62387680142E+01	-1.58544680193E-02	-3.13143524366E+01	-4.43953007353E-02	-3.14644755732E+01	-4.40519490661E+01	9.09559995767E+00
6.60312000000E+08	-4.05488985194E+01	3.20583005872E+01	-1.30987327142E-02	-3.20223609080E+01	-4.69810281750E-02	-3.21818158208E+01	-3.93221354161E+01	2.04880979613E+01
6.75310000000E+08	-4.26545394494E+01	2.95331809683E+01	-1.26820599640E-02	-3.27334498087E+01	-4.63342635114E-02	-3.28653756435E+01	-4.08136967515E+01	3.40507219515E+01
6.90308000000E+08	-4.91154551676E+01	1.63994258297E+00	-1.77700993992E-02	-3.34269875849E+01	-4.68194899009E-02	-3.35763988897E+01	-4.76207471528E+01	4.95374402742E+01
7.05306000000E+08	-4.81491758365E+01	-2.40485258623E+01	-1.69540762203E-02	-3.41697202992E+01	-5.06656792770E-02	-3.43207481345E+01	-5.66675087157E+01	-3.30800422185E+00
7.20304000000E+08	-4.32272100599E+01	5.96772715866E+00	-2.18608773818E-02	-3.48937909432E+01	-5.47990007703E-02	-3.50286763640E+01	-4.50674296223E+01	-1.18665590142E+01
7.35302000000E+08	-4.03361480017E+01	2.32558845413E+01	-2.27609492834E-02	-3.56354382509E+01	-5.75521608277E-02	-3.57443846075E+01	-4.00533896663E+01	6.81034742967E+00
7.50300000000E+08	-4.16777053210E+01	3.22453000211E+01	-2.59782922264E-02	-3.63221669768E+01	-5.84097859186E-02	-3.64588914453E+01	-3.99955634780E+01	2.32010607117E+01
7.65298000000E+08	-5.06748516132E+01	1.28149752166E+01	-2.64085918684E-02	-3.70383580174E+01	-5.88610084667E-02	-3.71721855648E+01	-4.54555196243E+01	4.04059876836E+01
7.80296000000E+08	-4.88002971475E+01	-4.48092385586E+01	-2.66001863401E-02	-3.77513159042E+01	-5.98484169746E-02	-3.78913099040E+01	-6.44272355265E+01	1.18905351274E+01
7.95294000000E+08	-4.42176617648E+01	-2.26477475999E+01	-2.97931750032E-02	-3.85103443697E+01	-6.33886401745E-02	-3.86195009342E+01	-4.75773012075E+01	-4.12357111258E+01
8.10292000000E+08	-4.04917600461E+01	7.02399619799E+00	-2.81468992193E-02	-3.92314216726E+01	-6.45555332979E-02	-3.93272702642E+01	-4.12397683360E+01	-8.23585628192E+00
8.25290000000E+08	-4.07656849034E+01	1.95223812544E+01	-3.06933222493E-02	-3.99399674256E+01	-6.25346099233E-02	-4.00345930170E+01	-3.94978637807E+01	1.06149112383E+01
8.40288000000E+08	-4.70407428071E+01	1.15621998777E+01	-2.77983106059E-02	-4.06261405882E+01	-5.97417811742E-02	-4.07192107482E+01	-4.32618812687E+01	3.06538225594E+01
8.55286000000E+08	-4.89751499316E+01	-5.54850162234E+01	-3.10018038487E-02	-4.13520265440E+01	-6.49893900868E-02	-4.14534461862E+01	-5.81632062734E+01	7.13142023113E+00
8.70284000000E+08	-4.40195523441E+01	-4.25849302055E+01	-3.49534019459E-02	-4.21076705363E+01	-6.44934136554E-02	-4.21648680072E+01	-4.70103720818E+01	-6.52676356141E+01
8.85282000000E+08	-4.07656999526E+01	-8.92649016754E+00	-3.52721851335E-02	-4.28323132983E+01	-6.84648508778E-02	-4.29087317854E+01	-4.15947733609E+01	-2.76163938000E+01
9.00280000000E+08	-3.97445435410E+01	1.05934759685E+01	-3.40788809236E-02	-4.35409465954E+01	-6.67120214709E-02	-4.36269037768E+01	-3.87946372715E+01	-3.45149526140E+00
9.15278000000E+08	-4.40571017900E+01	1.56155126440E+01	-3.98807821328E-02	-4.42343477896E+01	-6.73823024061E-02	-4.43149551777E+01	-4.07631624668E+01	1.55537412061E+01
9.30276000000E+08	-4.98626360887E+01	-5.14837006911E+01	-4.12094799381E-02	-4.49504232587E+01	-7.17205608822E-02	-4.50163834524E+01	-5.01355560326E+01	1.68691780661E+01
9.45274000000E+08	-4.34237098116E+01	-6.46111898025E+01	-4.36740343615E-02	-4.56794183570E+01	-7.62013847267E-02	-4.57516313990E+01	-4.79422303586E+01	-8.58429755306E+01
9.60272000000E+08	-4.16407927585E+01	-3.06605212690E+01	-4.72304024097E-02	-4.64243043292E+01	-8.03836749410E-02	-4.64662693484E+01	-4.27150632820E+01	-5.58973027275E+01
9.75270000000E+08	-4.04766783376E+01	3.54443055859E+00	-4.59532256735E-02	-4.71567550482E+01	-7.84775032177E-02	-4.71996942421E+01	-3.93965569855E+01	-1.97663016311E+01
9.90268000000E+08	-4.34730201476E+01	1.72465312508E+01	-4.54229662690E-02	-4.78678020266E+01	-7.69581772246E-02	-4.79082212314E+01	-4.01438867673E+01	1.01452336043E+00
1.00526600000E+09	-5.23049995118E+01	-6.13801686996E+01	-4.51543931679E-02	-4.85703661678E+01	-7.59264925311E-02	-4.86170177775E+01	-4.76134852506E+01	2.38683243100E-01
1.02026400000E+09	-4.30532974824E+01	-8.73019669908E+01	-4.65733604041E-02	-4.92816700187E+01	-8.01476509133E-02	-4.93327158648E+01	-4.64465465182E+01	-9.79263479106E+01
1.03526200000E+09	-4.17359778816E+01	-5.83480870826E+01	-5.02807352692E-02	-5.00399607639E+01	-8.37430884954E-02	-5.00449181246E+01	-4.20079913560E+01	-7.83646345294E+01
1.05026000000E+09	-4.11436709948E+01	-1.11046530620E+01	-5.22216895247E-02	-5.07759057013E+01	-8.11714986538E-02	-5.07679718818E+01	-3.94689109475E+01	-3.75545615760E+01
1.06525800000E+09	-4.20016911535E+01	1.27437587026E+01	-4.74612568198E-02	-5.15003010345E+01	-7.79369113950E-02	-5.15109926258E+01	-3.81389942159E+01	-1.26881950225E+01
1.08025600000E+09	-5.15283848286E+01	-2.55172949409E+01	-5.04459180961E-02	-5.21807898547E+01	-7.77500749865E-02	-5.22122636683E+01	-4.22775717666E+01	-1.21873325708E+01
1.09525400000E+09	-4.26656583331E+01	-9.97184510651E+01	-5.09305523547E-02	-5.28744979271E+01	-8.02198005455E-02	-5.28898646417E+01	-4.71709529075E+01	-8.95038500515E+01
1.11025200000E+09	-4.07067052517E+01	-7.99087502522E+01	-5.30000448444E-02	-5.36109625745E+01	-8.28024291197E-02	-5.36100486517E+01	-4.16613071553E+01	-9.61914457595E+01
1.12525000000E+09	-4.05013117440E+01	-2.97148419508E+01	-5.71598927802E-02	-5.43468192808E+01	-8.46080152218E-02	-5.43604453430E+01	-4.04643383517E+01	-5.44829610861E+01
1.14024800000E+09	-4.00139020078E+01	2.12914181648E+00	-5.93399054633E-02	-5.50731471326E+01	-8.39299466478E-02	-5.51042523074E+01	-3.81130339592E+01	-2.02743901078E+01
1.15524600000E+09	-4.67211311828E+01	-7.31612910423E+00	-5.64028311326E-02	-5.57798090848E+01	-8.22977446720E-02	-5.57767269825E+01	-4.03799022983E+01	-1.43329565217E+01
1.17024400000E+09	-4.38752715349E+01	-1.05303732815E+02	-5.98165668625E-02	-5.64875747131E+01	-8.57379172146E-02	-5.64493742393E+01	-4.73711401660E+01	-7.66246398122E+01
1.18524200000E+09	-4.04345072980E+01	-1.00148416984E+02	-6.41545908110E-02	-5.72142742228E+01	-8.75312669158E-02	-5.71701825539E+01	-4.17682493337E+01	-1.15712270143E+02
1.20024000000E+09	-4.21417167683E+01	-4.94214303136E+01	-6.61286122859E-02	-5.79571600932E+01	-9.42732823197E-02	-5.79237707612E+01	-4.11365426272E+01	-8.08116867100E+01
1.21523800000E+09	-3.99269232650E+01	-2.90827432191E+00	-6.61250137601E-02	-5.86932269919E+01	-9.11410356061E-02	-5.86629827683E+01	-3.83046789400E+01	-3.25792753178E+01
1.23023600000E+09	-4.36086072751E+01	1.12492135710E+00	-6.32640101224E-02	-5.93922547582E+01	-8.75168979320E-02	-5.93801908337E+01	-3.81127074893E+01	-2.13733831073E+01
1.24523400000E+09	-4.58429059486E+01	-1.04002477840E+02	-6.46519853875E-02	-6.01077813956E+01	-8.50948125715E-02	-6.00390881355E+01	-4.47910585170E+01	-5.30142522575E+01
1.26023200000E+09	-3.96279225949E+01	-1.13625047953E+02	-6.59945797081E-02	-6.07846835220E+01	-8.82363041921E-02	-6.07348791071E+01	-4.21718700422E+01	-1.24467578950E+02
1.27523000000E+09	-4.14222569752E+01	-7.75448700814E+01	-7.10518118866E-02	-6.15237973018E+01	-8.94673630752E-02	-6.14557059938E+01	-4.15550916846E+01	-1.03228952504E+02
1.29022800000E+09	-3.97180590397E+01	-2.48340954651E+01	-7.12485691542E-02	-6.22714881592E+01	-8.93712393216E-02	-6.21906332814E+01	-3.93978276171E+01	-4.86686661974E+01
1.30522600000E+09	-4.05518501189E+01	-1.44749803303E+01	-7.20939808570E-02	-6.29895307842E+01	-8.63240615688E-02	-6.29114371861E+01	-3.75588496499E+01	-2.87704423192E+01
1.32022400000E+09	-4.55277045906E+01	-8.05997999852E+01	-7.30863659995E-02	-6.36979355368E+01	-8.90512546102E-02	-6.35846290681E+01	-4.23271375023E+01	-4.51256598006E+01
1.33522200000E+09	-4.00226049941E+01	-1.19107498597E+02	-7.32080637426E-02	-6.43630735064E+01	-8.77253986996E-02	-6.42921451196E+01	-4.32992871974E+01	-1.22140993931E+02
1.35022000000E+09	-4.17637468668E+01	-9.79043818050E+01	-7.73098125362E-02	-6.50984427709E+01	-9.11163601400E-02	-6.50187500216E+01	-4.09639275503E+01	-1.20686887568E+02
1.36521800000E+09	-4.11172512895E+01	-3.42210087793E+01	-7.98051967401E-02	-6.58477397531E+01	-9.29450723817E-02	-6.57660979712E+01	-3.97506406540E+01	-6.65001482773E+01
1.38021600000E+09	-4.02114785262E+01	-1.65165726068E+01	-8.23847843434E-02	-6.65806233559E+01	-9.45231798336E-02	-6.65131256063E+01	-3.69232464157E+01	-4.19283622799E+01
1.39521400000E+09	-4.66134556622E+01	-7.06780397189E+01	-8.20651931837E-02	-6.72596433894E+01	-9.22423297322E-02	-6.71884365070E+01	-4.01396188111E+01	-4.63497313534E+01
1.41021200000E+09	-4.03412115061E+01	-1.27755813391E+02	-8.32303939579E-02	-6.79522466687E+01	-9.24389786468E-02	-6.78666386198E+01	-4.46244361084E+01	-1.18189515196E+02
1.42521000000E+09	-4.03868164083E+01	-1.16991609929E+02	-8.17887453452E-02	-6.86376488138E+01	-9.30075999752E-02	-6.85777683528E+01	-4.13084649417E+01	-1.40288578358E+02
1.44020800000E+09	-4.20055233565E+01	-6.01458383011E+01	-8.60089988632E-02	-6.94020059434E+01	-9.28878254143E-02	-6.93221095899E+01	-4.10016650909E+01	-9.28332290610E+01
1.45520600000E+09	-4.05029559376E+01	-3.40597055471E+01	-9.12582094521E-02	-7.01572856010E+01	-9.68808102911E-02	-7.00689300516E+01	-3.75021474465E+01	-5.95529524316E+01
1.47020400000E+09	-4.48588708588E+01	-6.76666704736E+01	-8.92412979615E-02	-7.08489052928E+01	-9.22019427272E-02	-7.07673386232E+01	-3.86256219269E+01	-5.71558268872E+01
1.48520200000E+09	-4.08795126533E+01	-1.29839388738E+02	-8.51631019695E-02	-7.15087388905E+01	-9.19703739545E-02	-7.14438230647E+01	-4.46589411122E+01	-1.04554730693E+02
1.50020000000E+09	-3.99299787332E+01	-1.24569757648E+02	-8.84710564314E-02	-7.22181129822E+01	-8.99627733931E-02	-7.21427126014E+01	-4.26682189829E+01	-1.44282665098E+02
1.51519800000E+09	-4.16801850432E+01	-7.40130583507E+01	-9.02509968553E-02	-7.29404636844E+01	-8.83046216023E-02	-7.28935477610E+01	-4.20196545806E+01	-1.07177864381E+02
1.53019600000E+09	-4.01800848386E+01	-4.46817018617E+01	-9.51241176849E-02	-7.36854082819E+01	-9.58679681642E-02	-7.36422839377E+01	-3.79619752751E+01	-7.21058298570E+01
1.54519400000E+09	-4.43863337508E+01	-6.80483577179E+01	-9.58451822673E-02	-7.44019403749E+01	-9.44678605223E-02	-7.43570423992E+01	-3.79025619819E+01	-6.82286905026E+01
1.56019200000E+09	-4.11479217778E+01	-1.36180208787E+02	-9.33815598809E-02	-7.51185179246E+01	-9.24635557905E-02	-7.50529994102E+01	-4.29592138803E+01	-9.70425432949E+01
1.57519000000E+09	-3.92688274386E+01	-1.37252357132E+02	-9.32921645144E-02	-7.58083010049E+01	-9.05495828817E-02	-7.57623572376E+01	-4.27276125634E+01	-1.48480562256E+02
1.59018800000E+09	-4.12485052174E+01	-9.61694752346E+01	-9.72601708519E-02	-7.65434592178E+01	-9.49408338876E-02	-7.64973385631E+01	-4.16072737517E+01	-1.25077506317E+02
1.60518600000E+09	-4.05391375489E+01	-6.03975246835E+01	-9.97968670061E-02	-7.72740762183E+01	-9.78280801797E-02	-7.72456680341E+01	-3.84832411152E+01	-8.97877825929E+01
1.62018400000E+09	-4.34522157645E+01	-8.09772709553E+01	-1.01556316148E-01	-7.79849561623E+01	-9.72367454846E-02	-7.79861420927E+01	-3.74559134001E+01	-8.42690751400E+01
1.63518200000E+09	-4.03765840427E+01	-1.43568447085E+02	-1.00975622595E-01	-7.86692076107E+01	-9.31065137554E-02	-7.86780006394E+01	-4.06463249449E+01	-1.07848196761E+02
1.65018000000E+09	-3.79699631243E+01	-1.47750342250E+02	-9.81656602569E-02	-7.93637249849E+01	-9.06651528488E-02	-7.93561460537E+01	-4.18434679642E+01	-1.49332703337E+02
1.66517800000E+09	-4.00273659013E+01	-1.15686776340E+02	-1.01288451782E-01	-8.01041548312E+01	-9.40347616438E-02	-8.00803075086E+01	-4.11316817153E+01	-1.40094283104E+02
1.68017600000E+09	-4.02779145407E+01	-7.52404781332E+01	-1.08325139368E-01	-8.08361029193E+01	-9.66644848001E-02	-8.08143451742E+01	-3.83896486617E+01	-1.03038662823E+02
1.69517400000E+09	-4.34128788020E+01	-8.36387504290E+01	-1.10616450212E-01	-8.15577547114E+01	-9.71580197288E-02	-8.15455607758E+01	-3.66233356251E+01	-9.50862930861E+01
1.71017200000E+09	-4.12955604812E+01	-1.51934151422E+02	-1.09847703441E-01	-8.22646123251E+01	-9.84229243682E-02	-8.22661300206E+01	-3.88505472398E+01	-1.08728049254E+02
1.72517000000E+09	-3.76138096570E+01	-1.59512075497E+02	-1.10664501859E-01	-8.29663710258E+01	-9.50629673611E-02	-8.29704389519E+01	-4.14407752537E+01	-1.41362834100E+02
1.74016800000E+09	-3.91185731623E+01	-1.33662944138E+02	-1.10637970323E-01	-8.36648436482E+01	-9.69564602754E-02	-8.36855579298E+01	-4.10605526686E+01	-1.41989873438E+02
