# Hz S DB R 50
! CMT, SC5090, 24087134, 25.3.3/4
! Date: 29.11.2025 13:43:38
! Data: Format (Calibration Info)
! Freq	S11:dB/Ang(F2)	S21:dB/Ang(F2)	S12:dB/Ang(F2)	S22:dB/Ang(F2)
3.00000000000E+05	-1.88152030591E+01	-8.58005902511E+01	1.90421188406E-02	6.51474873241E+00	-2.19512004576E-02	6.34593752637E+00	-1.89689404289E+01	-8.60914109977E+01
4.52985000000E+07	-4.66387752736E+01	-1.72765514633E+02	5.58804369415E-02	-4.25758985835E+00	3.60381232128E-02	-4.36819805388E+00	-4.53838042831E+01	-1.79311612163E+02
9.02970000000E+07	-4.83367684139E+01	-1.60282786285E+02	3.80588713225E-02	-8.52506938238E+00	2.90439574251E-02	-8.59456768512E+00	-4.73135501956E+01	-1.69463664380E+02
1.35295500000E+08	-4.68191469774E+01	-1.35495604717E+02	2.46195370139E-02	-1.27259162279E+01	2.00773932880E-02	-1.27849196954E+01	-4.66805092117E+01	-1.43866038640E+02
1.80294000000E+08	-4.36857492599E+01	-1.12251947860E+02	1.28264860254E-02	-1.69404817052E+01	1.04634265023E-02	-1.70074247636E+01	-4.37350738919E+01	-1.22320906648E+02
2.25292500000E+08	-4.03210621951E+01	-1.07086700748E+02	3.57715803395E-03	-2.11165586423E+01	-1.22437431693E-03	-2.11724348982E+01	-4.03654237881E+01	-1.12880473370E+02
2.70291000000E+08	-3.79193390466E+01	-1.08300559457E+02	-7.63220000471E-03	-2.52733094115E+01	-1.09934431959E-02	-2.53415418905E+01	-3.82155163198E+01	-1.10833754964E+02
3.15289500000E+08	-3.64193888744E+01	-1.09736063485E+02	-1.69558315732E-02	-2.94370748623E+01	-2.19639140417E-02	-2.94881326199E+01	-3.66330737675E+01	-1.13481563414E+02
3.60288000000E+08	-3.48431536160E+01	-1.10565984689E+02	-2.43688308571E-02	-3.35994836120E+01	-3.04771816827E-02	-3.36416100245E+01	-3.52893440397E+01	-1.18283097904E+02
4.05286500000E+08	-3.32254821872E+01	-1.11450609386E+02	-3.33417471837E-02	-3.77468225873E+01	-4.02453700906E-02	-3.77903002847E+01	-3.37950118508E+01	-1.25321152701E+02
4.50285000000E+08	-3.16904399281E+01	-1.13788683614E+02	-4.26431732937E-02	-4.18939983786E+01	-4.78656783011E-02	-4.19136966376E+01	-3.22125865777E+01	-1.31405870267E+02
4.95283500000E+08	-3.03715191262E+01	-1.16803463436E+02	-4.99129378220E-02	-4.60409955406E+01	-5.74620935614E-02	-4.60878958629E+01	-3.08507173940E+01	-1.34879453522E+02
5.40282000000E+08	-2.94516847414E+01	-1.21851428181E+02	-6.18709751460E-02	-5.01788417004E+01	-7.05595805759E-02	-5.02307555911E+01	-2.98032447597E+01	-1.39061931566E+02
5.85280500000E+08	-2.85399323438E+01	-1.26974945369E+02	-7.08800051428E-02	-5.42965756804E+01	-7.82586888787E-02	-5.43393215275E+01	-2.89999669461E+01	-1.43266260970E+02
6.30279000000E+08	-2.77513999661E+01	-1.31495787747E+02	-7.97244525376E-02	-5.84520243311E+01	-8.59880533397E-02	-5.84844434588E+01	-2.81914352757E+01	-1.47875627518E+02
6.75277500000E+08	-2.69058282724E+01	-1.35336967326E+02	-7.90937211251E-02	-6.25948752829E+01	-9.19637828059E-02	-6.25979977671E+01	-2.74687012235E+01	-1.52311159643E+02
7.20276000000E+08	-2.64995392582E+01	-1.39051088873E+02	-8.88507346984E-02	-6.67157648189E+01	-1.01286022833E-01	-6.67319843705E+01	-2.69365360979E+01	-1.57693045051E+02
7.65274500000E+08	-2.61274262948E+01	-1.42681465082E+02	-9.97989205811E-02	-7.08437935361E+01	-1.09139499420E-01	-7.08659710685E+01	-2.64767418821E+01	-1.62859379323E+02
8.10273000000E+08	-2.56449121010E+01	-1.45987018028E+02	-1.05047479432E-01	-7.49515281053E+01	-1.13953903705E-01	-7.49869791752E+01	-2.60911095598E+01	-1.68135507058E+02
8.55271500000E+08	-2.51118982659E+01	-1.50151879192E+02	-1.09153607422E-01	-7.90930978825E+01	-1.19720721756E-01	-7.91342601426E+01	-2.55896107678E+01	-1.73276320844E+02
9.00270000000E+08	-2.44973303812E+01	-1.54243727377E+02	-1.16144001130E-01	-8.32246678038E+01	-1.22422361932E-01	-8.32515230347E+01	-2.50300869529E+01	-1.78233391888E+02
9.45268500000E+08	-2.40209159209E+01	-1.58613620291E+02	-1.22238524591E-01	-8.73527188533E+01	-1.32814768213E-01	-8.73586530546E+01	-2.44303730224E+01	1.76574006168E+02
9.90267000000E+08	-2.36002457542E+01	-1.62376857853E+02	-1.31301032866E-01	-9.14875580131E+01	-1.38492391273E-01	-9.14841209012E+01	-2.39871225806E+01	1.71828363832E+02
1.03526550000E+09	-2.33376326455E+01	-1.65537585598E+02	-1.36356250160E-01	-9.56269108896E+01	-1.43709126372E-01	-9.56261735310E+01	-2.37464006537E+01	1.66637488730E+02
1.08026400000E+09	-2.31071181346E+01	-1.68239027425E+02	-1.37707353669E-01	-9.97572451271E+01	-1.46959675094E-01	-9.97416219390E+01	-2.36623465530E+01	1.61159400178E+02
1.12526250000E+09	-2.28260398617E+01	-1.71592563856E+02	-1.46957074964E-01	-1.03895393868E+02	-1.52631406171E-01	-1.03869816528E+02	-2.33911315019E+01	1.55300332359E+02
1.17026100000E+09	-2.24101324724E+01	-1.75121253461E+02	-1.57052611975E-01	-1.08037208301E+02	-1.55607164405E-01	-1.08005583158E+02	-2.29476129673E+01	1.49362332931E+02
1.21525950000E+09	-2.20681969865E+01	-1.78793603750E+02	-1.61786014430E-01	-1.12147100187E+02	-1.65010763635E-01	-1.12132028107E+02	-2.25019478102E+01	1.43742602605E+02
1.26025800000E+09	-2.18170657556E+01	1.77963845023E+02	-1.64708719117E-01	-1.16252983114E+02	-1.70467486992E-01	-1.16242094154E+02	-2.22632382523E+01	1.38756055728E+02
1.30525650000E+09	-2.17033172111E+01	1.74671711014E+02	-1.68699090263E-01	-1.20394636085E+02	-1.72658756813E-01	-1.20379351935E+02	-2.21058397156E+01	1.34217569232E+02
1.35025500000E+09	-2.14186731318E+01	1.70747766062E+02	-1.76280072093E-01	-1.24536391675E+02	-1.79770412574E-01	-1.24525637307E+02	-2.18829401418E+01	1.28966477273E+02
1.39525350000E+09	-2.11005905351E+01	1.67057813242E+02	-1.85972217999E-01	-1.28671362011E+02	-1.88825650047E-01	-1.28673772203E+02	-2.15424157824E+01	1.23344828769E+02
1.44025200000E+09	-2.07688713459E+01	1.63650601332E+02	-1.91776702305E-01	-1.32806369591E+02	-1.92825745907E-01	-1.32775372757E+02	-2.12340988641E+01	1.17003242691E+02
1.48525050000E+09	-2.06471587218E+01	1.60989796517E+02	-1.94670129458E-01	-1.36914290823E+02	-1.96752137262E-01	-1.36905785413E+02	-2.10322308247E+01	1.11104516505E+02
1.53024900000E+09	-2.05043325480E+01	1.58399634336E+02	-2.02994858740E-01	-1.41078640477E+02	-2.01543894887E-01	-1.41051230561E+02	-2.08611089123E+01	1.05893447065E+02
1.57524750000E+09	-2.02248464509E+01	1.55033288925E+02	-2.09643771039E-01	-1.45202258659E+02	-2.08355849769E-01	-1.45205538340E+02	-2.05995476560E+01	1.00785796633E+02
1.62024600000E+09	-1.99104586913E+01	1.51060399898E+02	-2.17208271820E-01	-1.49336436361E+02	-2.18244851983E-01	-1.49350350169E+02	-2.03020409645E+01	9.51993562694E+01
1.66524450000E+09	-1.96526895256E+01	1.47536159302E+02	-2.23336165568E-01	-1.53466155747E+02	-2.24361950696E-01	-1.53462103344E+02	-2.00332064374E+01	8.93692998031E+01
1.71024300000E+09	-1.94873122910E+01	1.44941549784E+02	-2.27391034608E-01	-1.57594465797E+02	-2.26555128486E-01	-1.57605013472E+02	-1.98376790538E+01	8.36891254004E+01
1.75524150000E+09	-1.94094593591E+01	1.42533091760E+02	-2.33530489405E-01	-1.61703681189E+02	-2.36027701459E-01	-1.61736943667E+02	-1.97163403994E+01	7.83979331026E+01
1.80024000000E+09	-1.92953664015E+01	1.39671397457E+02	-2.40465401513E-01	-1.65865819547E+02	-2.37973040645E-01	-1.65910850482E+02	-1.95713671949E+01	7.29661807446E+01
1.84523850000E+09	-1.91052269321E+01	1.36007419410E+02	-2.46659422962E-01	-1.69994837351E+02	-2.44936340864E-01	-1.70042117724E+02	-1.93579416291E+01	6.70418567232E+01
1.89023700000E+09	-1.88744399770E+01	1.32653045291E+02	-2.53897919642E-01	-1.74119292000E+02	-2.51737637943E-01	-1.74169858041E+02	-1.91136355560E+01	6.10913796942E+01
1.93523550000E+09	-1.86764260231E+01	1.30229435027E+02	-2.57629792531E-01	-1.78268627984E+02	-2.58729169088E-01	-1.78295558025E+02	-1.89651441356E+01	5.52939260157E+01
1.98023400000E+09	-1.85580475910E+01	1.27740320826E+02	-2.61311796362E-01	1.77609987644E+02	-2.62709324452E-01	1.77556334821E+02	-1.88283077164E+01	4.98163964062E+01
2.02523250000E+09	-1.84829398174E+01	1.24780808111E+02	-2.69372984853E-01	1.73476306355E+02	-2.67349658583E-01	1.73417801867E+02	-1.86788300897E+01	4.41333621499E+01
2.07023100000E+09	-1.83681001324E+01	1.21748729885E+02	-2.75534583147E-01	1.69327595406E+02	-2.74327852037E-01	1.69284178101E+02	-1.85408835596E+01	3.82856761890E+01
2.11522950000E+09	-1.82177501764E+01	1.18767467141E+02	-2.78295028846E-01	1.65197775324E+02	-2.78496324652E-01	1.65151097037E+02	-1.83946020645E+01	3.24521437170E+01
2.16022800000E+09	-1.80525313542E+01	1.16185415042E+02	-2.82658675703E-01	1.61075779416E+02	-2.83527542496E-01	1.60992107507E+02	-1.82389472900E+01	2.68347061443E+01
2.20522650000E+09	-1.79484842255E+01	1.13286993375E+02	-2.87891427108E-01	1.56938482312E+02	-2.91340403912E-01	1.56839136678E+02	-1.80923014727E+01	2.11426117394E+01
2.25022500000E+09	-1.78871633328E+01	1.10658680731E+02	-2.94656404804E-01	1.52791072558E+02	-2.99527012820E-01	1.52697965017E+02	-1.79314956140E+01	1.52432095032E+01
2.29522350000E+09	-1.77409545579E+01	1.08138124071E+02	-2.95338377834E-01	1.48633450973E+02	-2.99593636098E-01	1.48571252477E+02	-1.78230067160E+01	9.62116158895E+00
2.34022200000E+09	-1.75897429272E+01	1.05493418290E+02	-3.02282407286E-01	1.44466774463E+02	-3.08534149681E-01	1.44432612673E+02	-1.77291244018E+01	3.87301573912E+00
2.38522050000E+09	-1.74644206006E+01	1.02838721086E+02	-3.06829279910E-01	1.40329386563E+02	-3.13332787743E-01	1.40275917152E+02	-1.76061964934E+01	-2.03297894783E+00
2.43021900000E+09	-1.74172852022E+01	1.00355687504E+02	-3.11600424421E-01	1.36198572159E+02	-3.18682511189E-01	1.36135449988E+02	-1.74857735901E+01	-8.02969386529E+00
2.47521750000E+09	-1.74039844558E+01	9.78187543734E+01	-3.12316503756E-01	1.32056149743E+02	-3.22723123087E-01	1.31978659187E+02	-1.73639834031E+01	-1.40755775760E+01
2.52021600000E+09	-1.73179771800E+01	9.49652452350E+01	-3.19560176366E-01	1.27932996517E+02	-3.21766741694E-01	1.27818494790E+02	-1.72685473390E+01	-1.94851292166E+01
2.56521450000E+09	-1.71554893830E+01	9.16894756290E+01	-3.20979396304E-01	1.23709862272E+02	-3.28721818299E-01	1.23643206894E+02	-1.71929255218E+01	-2.45226955481E+01
2.61021300000E+09	-1.70199327092E+01	8.86770100579E+01	-3.30216208123E-01	1.19542911999E+02	-3.35650518039E-01	1.19485062399E+02	-1.70686736481E+01	-2.99651460781E+01
2.65521150000E+09	-1.69258607676E+01	8.60717007786E+01	-3.30867886832E-01	1.15384295376E+02	-3.40044793809E-01	1.15354410478E+02	-1.69362920075E+01	-3.58419683449E+01
2.70021000000E+09	-1.68467074252E+01	8.38259754813E+01	-3.37941414503E-01	1.11219097890E+02	-3.46515825583E-01	1.11158692690E+02	-1.68272183795E+01	-4.19359840445E+01
2.74520850000E+09	-1.67765912831E+01	8.13346213702E+01	-3.44093426735E-01	1.07053334543E+02	-3.50227491103E-01	1.07011359512E+02	-1.67244110274E+01	-4.76942697420E+01
2.79020700000E+09	-1.67004273754E+01	7.84136302778E+01	-3.48664451325E-01	1.02896833289E+02	-3.59066586809E-01	1.02835096327E+02	-1.66395592040E+01	-5.29082325630E+01
2.83520550000E+09	-1.66338891892E+01	7.54524484228E+01	-3.51889401246E-01	9.87406006099E+01	-3.62387727579E-01	9.86610593243E+01	-1.65671845829E+01	-5.83963841823E+01
2.88020400000E+09	-1.66020551133E+01	7.22836581836E+01	-3.54480835633E-01	9.45884667036E+01	-3.67192454154E-01	9.45116567471E+01	-1.65292442870E+01	-6.37528807679E+01
2.92520250000E+09	-1.65090089842E+01	6.93702665953E+01	-3.61945820324E-01	9.03595256069E+01	-3.71858724815E-01	9.03375355912E+01	-1.64575781764E+01	-6.94011320647E+01
2.97020100000E+09	-1.64253833743E+01	6.65977656068E+01	-3.68685031670E-01	8.61920198335E+01	-3.78451087304E-01	8.61587831335E+01	-1.63800522603E+01	-7.49217175324E+01
3.01519950000E+09	-1.63710521086E+01	6.39074208602E+01	-3.70122035119E-01	8.20220031895E+01	-3.82420223348E-01	8.20063256408E+01	-1.62836717078E+01	-8.04270846949E+01
3.06019800000E+09	-1.63241131112E+01	6.09590006879E+01	-3.76277872067E-01	7.78409065264E+01	-3.87874610538E-01	7.78103353690E+01	-1.62080529528E+01	-8.59720108711E+01
3.10519650000E+09	-1.62502472249E+01	5.82434450142E+01	-3.82923600947E-01	7.36755254793E+01	-3.91007775956E-01	7.36429368213E+01	-1.61588774594E+01	-9.16229268670E+01
3.15019500000E+09	-1.62163236720E+01	5.54659794420E+01	-3.82488880425E-01	6.94991564943E+01	-3.97102097877E-01	6.94752149306E+01	-1.61207756462E+01	-9.71456726916E+01
3.19519350000E+09	-1.62362343575E+01	5.25737287816E+01	-3.84881208993E-01	6.53505655414E+01	-3.98950237123E-01	6.52799583279E+01	-1.61140217876E+01	-1.02437003803E+02
3.24019200000E+09	-1.62771883842E+01	4.95147108831E+01	-3.85491889560E-01	6.11451323310E+01	-3.99631873676E-01	6.11228297941E+01	-1.61137477502E+01	-1.07595563136E+02
3.28519050000E+09	-1.63250751723E+01	4.63935056802E+01	-3.89776731746E-01	5.69075141140E+01	-4.05201040457E-01	5.69265641985E+01	-1.61545493400E+01	-1.12792221875E+02
3.33018900000E+09	-1.63326255587E+01	4.32571787272E+01	-3.93222419935E-01	5.26857338687E+01	-4.04123117533E-01	5.27266911866E+01	-1.62071490200E+01	-1.18363706307E+02
3.37518750000E+09	-1.63071191801E+01	4.03168439197E+01	-3.95852045906E-01	4.85239415941E+01	-4.11027719450E-01	4.85433313940E+01	-1.62035807147E+01	-1.24018338927E+02
3.42018600000E+09	-1.62908156444E+01	3.74717919512E+01	-3.96899439676E-01	4.43332327024E+01	-4.13787149880E-01	4.43105147719E+01	-1.61449889456E+01	-1.29528616161E+02
3.46518450000E+09	-1.63365019119E+01	3.46609058208E+01	-3.97890593755E-01	4.01307191648E+01	-4.14168004097E-01	4.01475061006E+01	-1.60991657951E+01	-1.34814760198E+02
3.51018300000E+09	-1.63890695166E+01	3.14029537038E+01	-4.03909933701E-01	3.59300424786E+01	-4.13462440829E-01	3.59464400805E+01	-1.61408468662E+01	-1.39604310091E+02
3.55518150000E+09	-1.65100915281E+01	2.78832367050E+01	-4.02346172752E-01	3.17103640067E+01	-4.12253125800E-01	3.17453893432E+01	-1.62851104711E+01	-1.44599613647E+02
3.60018000000E+09	-1.66330525519E+01	2.44958006681E+01	-4.03696645936E-01	2.75144136421E+01	-4.13538977741E-01	2.75071422103E+01	-1.64370353021E+01	-1.49686982497E+02
3.64517850000E+09	-1.67430618901E+01	2.11002531616E+01	-4.01928737706E-01	2.33074059421E+01	-4.14245750284E-01	2.32963188015E+01	-1.65666219427E+01	-1.55128389116E+02
3.69017700000E+09	-1.68521344445E+01	1.78347706569E+01	-4.04845216048E-01	1.90393097451E+01	-4.12384121940E-01	1.91031468420E+01	-1.66336867694E+01	-1.60238220101E+02
3.73517550000E+09	-1.69570752167E+01	1.45611907939E+01	-4.08134095816E-01	1.47642754815E+01	-4.18111897271E-01	1.48368332652E+01	-1.67042241198E+01	-1.65522205533E+02
3.78017400000E+09	-1.70495028505E+01	1.11372850687E+01	-4.09456808931E-01	1.05403658388E+01	-4.17494141187E-01	1.06016551434E+01	-1.67614744120E+01	-1.70518351043E+02
3.82517250000E+09	-1.71667727810E+01	7.95448543922E+00	-4.09954023323E-01	6.33277206793E+00	-4.19019123600E-01	6.32589696076E+00	-1.69024395584E+01	-1.75683637650E+02
3.87017100000E+09	-1.73181780185E+01	4.43918869951E+00	-4.11770695854E-01	2.09165064653E+00	-4.20252645351E-01	2.08740458375E+00	-1.70636563851E+01	1.79438114083E+02
3.91516950000E+09	-1.74997937360E+01	5.33499803919E-01	-4.16240214150E-01	-2.15088988675E+00	-4.16852381279E-01	-2.11160989633E+00	-1.72070864056E+01	1.74683305203E+02
3.96016800000E+09	-1.77596311871E+01	-3.35890234348E+00	-4.12655982887E-01	-6.40824741104E+00	-4.21598081150E-01	-6.34339641515E+00	-1.74496938339E+01	1.70180003847E+02
4.00516650000E+09	-1.79554279512E+01	-6.89039937443E+00	-4.14084561464E-01	-1.06649334329E+01	-4.21952142646E-01	-1.06067392583E+01	-1.76688079827E+01	1.65432962955E+02
4.05016500000E+09	-1.81221798444E+01	-1.03469497798E+01	-4.12807418478E-01	-1.49140552396E+01	-4.24770558324E-01	-1.48878939638E+01	-1.79525193145E+01	1.59959115951E+02
4.09516350000E+09	-1.83058716304E+01	-1.39361109394E+01	-4.12854618655E-01	-1.91847889799E+01	-4.19389052606E-01	-1.91560899378E+01	-1.81559971054E+01	1.54586258885E+02
4.14016200000E+09	-1.85169104988E+01	-1.78050502048E+01	-4.15341199817E-01	-2.34626345827E+01	-4.20838283401E-01	-2.34469821780E+01	-1.82646585077E+01	1.50068643721E+02
4.18516050000E+09	-1.88286469426E+01	-2.18804219421E+01	-4.14089521838E-01	-2.77441161226E+01	-4.17273222057E-01	-2.77264257218E+01	-1.84564450819E+01	1.45886282480E+02
4.23015900000E+09	-1.91117063177E+01	-2.59917142472E+01	-4.09375326075E-01	-3.20086866326E+01	-4.19630741410E-01	-3.20075934992E+01	-1.87437027765E+01	1.41625573673E+02
4.27515750000E+09	-1.93821787797E+01	-2.95619102519E+01	-4.10012927449E-01	-3.63122203483E+01	-4.17986137360E-01	-3.62941343925E+01	-1.91435015736E+01	1.36641575550E+02
4.32015600000E+09	-1.96610435657E+01	-3.32621989232E+01	-4.16744526261E-01	-4.06265839438E+01	-4.19324250713E-01	-4.05821676798E+01	-1.95513084879E+01	1.31345590762E+02
4.36515450000E+09	-2.00392522610E+01	-3.74486362518E+01	-4.18901530820E-01	-4.49297235037E+01	-4.24323367127E-01	-4.48969349084E+01	-1.98745880090E+01	1.26433734970E+02
4.41015300000E+09	-2.03855536601E+01	-4.17520094117E+01	-4.22150711389E-01	-4.92446068042E+01	-4.24212247575E-01	-4.92150451630E+01	-2.01163221615E+01	1.21480369364E+02
4.45515150000E+09	-2.07540031630E+01	-4.58889812185E+01	-4.15781460954E-01	-5.35437431326E+01	-4.25267836977E-01	-5.35493685064E+01	-2.03387629394E+01	1.17056832248E+02
4.50015000000E+09	-2.10904144635E+01	-5.00535752006E+01	-4.15780370479E-01	-5.78723616884E+01	-4.25299709338E-01	-5.78898266093E+01	-2.07290457904E+01	1.13056347721E+02
4.54514850000E+09	-2.15468653630E+01	-5.45539800927E+01	-4.20104523300E-01	-6.22042184507E+01	-4.25544526728E-01	-6.22107248012E+01	-2.12523536500E+01	1.08921169622E+02
4.59014700000E+09	-2.20972794336E+01	-5.94618649484E+01	-4.21658059564E-01	-6.65533912028E+01	-4.29041385302E-01	-6.65468267710E+01	-2.18784728120E+01	1.05036550007E+02
4.63514550000E+09	-2.26647432828E+01	-6.45630575347E+01	-4.23914180039E-01	-7.09010827960E+01	-4.30569709427E-01	-7.08936635189E+01	-2.24086763950E+01	1.00361576691E+02
4.68014400000E+09	-2.31767939446E+01	-6.88195287158E+01	-4.26430541727E-01	-7.52454486590E+01	-4.30839953265E-01	-7.52512699964E+01	-2.28592283413E+01	9.54249633488E+01
4.72514250000E+09	-2.35666934135E+01	-7.22846742044E+01	-4.30816670600E-01	-7.95941315651E+01	-4.35465351780E-01	-7.96199204571E+01	-2.33527774071E+01	8.99195086363E+01
4.77014100000E+09	-2.40638981106E+01	-7.57026720178E+01	-4.31615689971E-01	-8.39795544966E+01	-4.42421653122E-01	-8.39966587599E+01	-2.38204499240E+01	8.44326281607E+01
4.81513950000E+09	-2.47590927437E+01	-8.09546894487E+01	-4.36160871338E-01	-8.83920323350E+01	-4.46314694798E-01	-8.83826162716E+01	-2.43007200016E+01	8.06600312184E+01
4.86013800000E+09	-2.55933954056E+01	-8.89515495923E+01	-4.41433707295E-01	-9.27853991971E+01	-4.51282045928E-01	-9.27509030385E+01	-2.49375231495E+01	7.86772249909E+01
4.90513650000E+09	-2.63414679047E+01	-9.79207995536E+01	-4.39835750838E-01	-9.71341444209E+01	-4.55538916972E-01	-9.71328102511E+01	-2.57367160648E+01	7.69292555003E+01
4.95013500000E+09	-2.69466180412E+01	-1.04349765559E+02	-4.44503377985E-01	-1.01517495639E+02	-4.55486049046E-01	-1.01515476069E+02	-2.67269469497E+01	7.38276587167E+01
4.99513350000E+09	-2.77177757433E+01	-1.09353670964E+02	-4.48955885005E-01	-1.05853820666E+02	-4.61025409318E-01	-1.05908308285E+02	-2.78760055908E+01	6.83967418292E+01
5.04013200000E+09	-2.85987121510E+01	-1.14054720130E+02	-4.53407891549E-01	-1.10259243900E+02	-4.62983076209E-01	-1.10293340986E+02	-2.89424459725E+01	6.22809746512E+01
5.08513050000E+09	-2.93717882560E+01	-1.21192011984E+02	-4.60176363274E-01	-1.14649946300E+02	-4.67161026885E-01	-1.14689913591E+02	-2.96503134005E+01	5.76444371386E+01
5.13012900000E+09	-3.00721207853E+01	-1.30311205023E+02	-4.64643167602E-01	-1.19102549059E+02	-4.71625967946E-01	-1.19106350207E+02	-3.02101328579E+01	5.54121974240E+01
5.17512750000E+09	-3.05899184198E+01	-1.40292449083E+02	-4.69545734262E-01	-1.23526916185E+02	-4.77596207876E-01	-1.23537107754E+02	-3.10472975998E+01	5.48809870569E+01
5.22012600000E+09	-3.10026854295E+01	-1.51541608224E+02	-4.70627115746E-01	-1.27981141093E+02	-4.82242516972E-01	-1.27973169228E+02	-3.23244434396E+01	5.73208236242E+01
