# Hz S DB R 50
! CMT, SC5090, 24087134, 25.3.3/4
! Date: 12.12.2025 15:30:38
! Data: Format (Calibration Info)
! Freq	S11:dB/Ang(F2)	S21:dB/Ang(F2)	S12:dB/Ang(F2)	S22:dB/Ang(F2)
4.00000000000E+05	2.61166482807E-02	-1.41759345291E-01	-8.23739158189E+01	8.00024060624E+01	-8.15354577982E+01	8.00487769508E+01	3.09264347466E-02	-1.33347694403E-01
1.53980000000E+07	9.08135434439E-03	9.88932464301E-02	-9.23544813620E+01	-1.22342975606E+02	-9.99848511742E+01	1.24140465220E+02	1.24562348462E-02	5.56854258906E-02
3.03960000000E+07	4.95814174949E-03	5.16922300185E-02	-9.23322530517E+01	-7.96818050154E+01	-1.01831061076E+02	-1.75219757748E+02	1.36215378198E-02	1.06387191574E-02
4.53940000000E+07	1.33448299409E-03	-6.55142413277E-02	-1.03032402603E+02	8.45394294414E+01	-1.06803650623E+02	-1.66073613484E+02	7.87286646034E-03	-9.04201935554E-02
6.03920000000E+07	4.30302177680E-03	-1.83191053415E-01	-1.01311214510E+02	-8.82178485787E+01	-9.73054512681E+01	8.71416904007E+01	1.28168043638E-02	-1.57184417792E-01
7.53900000000E+07	7.68292885155E-03	-2.21185256743E-01	-9.87344197617E+01	-1.49674600016E+02	-9.71275022749E+01	1.53384652043E+01	1.58930914618E-02	-1.82707991356E-01
9.03880000000E+07	9.55514155646E-03	-2.17032724137E-01	-1.00089761402E+02	9.97970190275E+01	-9.42695240354E+01	1.31485328022E+02	2.29858197029E-02	-1.94431033388E-01
1.05386000000E+08	1.58216180758E-03	-2.45866667072E-01	-1.03140607689E+02	-7.49927147610E+01	-1.01910709735E+02	2.63446300769E+01	1.87733840253E-02	-2.10833494883E-01
1.20384000000E+08	-1.67695751405E-03	-3.18683158740E-01	-9.81981183170E+01	4.19354042173E+00	-1.04139980554E+02	-6.02053589661E+01	5.65866365140E-03	-3.13743578983E-01
1.35382000000E+08	-3.78241114726E-03	-4.25444141929E-01	-9.80800290332E+01	-1.65153966596E+02	-8.84024083612E+01	-5.90175149938E+01	6.35151500519E-03	-4.23300035819E-01
1.50380000000E+08	2.47567402375E-03	-4.74884657677E-01	-9.36914035993E+01	4.86095657557E+01	-1.02308943976E+02	1.24534170975E+02	1.12013386495E-02	-5.12776541564E-01
1.65378000000E+08	7.98798690486E-03	-4.42373850534E-01	-1.01095083513E+02	8.06802438010E+00	-1.01228962075E+02	2.85924762988E+01	2.40478467272E-02	-5.02961619189E-01
1.80376000000E+08	7.00428115439E-03	-4.92172307057E-01	-9.56406113457E+01	1.50999026196E+02	-9.95774288585E+01	1.05614327642E+02	1.98180994627E-02	-4.66674761515E-01
1.95374000000E+08	-3.19607488153E-03	-5.74284324032E-01	-9.73284877711E+01	-4.00184539255E+01	-9.97090300226E+01	-1.51253048093E+02	7.63105407415E-03	-4.71262291778E-01
2.10372000000E+08	-6.07087852844E-03	-7.27571775897E-01	-9.99146107238E+01	-3.15702784010E+01	-9.03679114398E+01	1.73967858854E+02	-9.56040068435E-04	-5.68222883209E-01
2.25370000000E+08	-2.66861588780E-04	-8.55089912222E-01	-9.12553180737E+01	7.95084604144E+01	-9.43010367020E+01	-1.62569901580E+02	7.71535803595E-03	-7.04831998767E-01
2.40368000000E+08	6.70759268183E-03	-8.90320460510E-01	-1.00174346680E+02	-8.03989515520E+01	-9.21732507422E+01	1.55281440591E+02	1.93156803692E-02	-7.82233184841E-01
2.55366000000E+08	2.17157725775E-03	-8.75589372061E-01	-9.61230614623E+01	-9.31036388798E+01	-9.70278699068E+01	1.19116735605E+02	2.13448762380E-02	-7.75576210402E-01
2.70364000000E+08	-6.59799343108E-03	-8.79218061485E-01	-9.59241181579E+01	-2.35460897848E+01	-9.61695460200E+01	1.68505904055E+02	1.10314235159E-02	-7.19732740431E-01
2.85362000000E+08	-1.09184443388E-02	-9.92788607826E-01	-9.87468355323E+01	-1.11959177953E+02	-9.48192430988E+01	4.70255213947E+01	-4.41121961371E-03	-7.59144658769E-01
3.00360000000E+08	-6.71763166633E-03	-1.15780859548E+00	-9.97898524702E+01	6.44845230521E+01	-9.81207576477E+01	-5.18910457330E+01	2.08157722989E-03	-9.58733268029E-01
3.15358000000E+08	2.54149898406E-04	-1.19485128939E+00	-1.01281736192E+02	5.23197248474E+01	-9.97852924712E+01	7.66449563097E+01	1.45620758025E-02	-1.11178321042E+00
3.30356000000E+08	3.74714583822E-03	-1.15289153578E+00	-9.21480598505E+01	-1.62295418927E+02	-9.40205373958E+01	-4.44731266532E+01	2.11188529192E-02	-1.10777758159E+00
3.45354000000E+08	-4.99107158545E-03	-1.13219935028E+00	-1.06307370129E+02	7.41305661199E+01	-9.08370672946E+01	-5.12865917027E+01	1.23740889694E-02	-9.85936665212E-01
3.60352000000E+08	-1.55654478042E-02	-1.20051459930E+00	-9.66591912672E+01	-1.20385741550E+02	-9.55589169005E+01	-7.88125259539E+01	-2.06248873164E-03	-9.47666019777E-01
3.75350000000E+08	-9.85323258327E-03	-1.38451320070E+00	-9.11327819056E+01	1.20365781355E+01	-9.56353390440E+01	-2.58581675276E+01	-1.29939719027E-03	-1.10322964192E+00
3.90348000000E+08	1.42081281626E-03	-1.51520350848E+00	-1.04181652921E+02	1.36026653421E+02	-9.54405794395E+01	-2.56535742905E+01	7.43296558600E-03	-1.35055746481E+00
4.05346000000E+08	2.88940792492E-03	-1.48763882987E+00	-9.98370619039E+01	1.61207837949E+02	-9.72283062554E+01	-1.59708174876E+01	1.63719802001E-02	-1.46020572477E+00
4.20344000000E+08	1.48946844955E-03	-1.36952046776E+00	-9.91674991702E+01	4.85440566560E+01	-9.35522795291E+01	3.62165590962E+01	1.27580480344E-02	-1.31471789189E+00
4.35342000000E+08	-1.13541275127E-02	-1.34668883743E+00	-9.70203750069E+01	2.39885527377E+01	-1.01686625325E+02	-9.16041826764E+01	5.61154399733E-03	-1.19145139901E+00
4.50340000000E+08	-1.35407268719E-02	-1.50876106756E+00	-9.92378649345E+01	-8.75270815252E+01	-9.44248581457E+01	-1.49187894683E+02	-2.43622923094E-03	-1.30055225638E+00
4.65338000000E+08	-4.76442501882E-03	-1.72451636105E+00	-9.72006130629E+01	1.48949175320E+02	-9.42710772398E+01	4.10874377747E+01	1.43679014311E-03	-1.60867188829E+00
4.80336000000E+08	5.86328044201E-03	-1.76809522214E+00	-9.61165987468E+01	-3.08687212182E+01	-9.61652570625E+01	3.32870720737E+01	1.06682174799E-02	-1.79141787608E+00
4.95334000000E+08	-1.10191244674E-03	-1.67753435223E+00	-1.09606627264E+02	4.53971734511E+01	-1.01214581049E+02	-1.39123479998E+02	1.56767103741E-02	-1.70170567763E+00
5.10332000000E+08	-7.56575927422E-03	-1.58152680816E+00	-9.14456154983E+01	8.18798674944E+01	-9.02899800679E+01	1.54666003439E+02	1.15959981008E-02	-1.49740022320E+00
5.25330000000E+08	-2.03794844264E-02	-1.66355607599E+00	-9.64003558001E+01	-4.81391051619E+01	-8.66041140749E+01	-1.55913246279E+02	2.89921458409E-03	-1.49573029255E+00
5.40328000000E+08	-1.73002098364E-02	-1.94184254211E+00	-9.17066918248E+01	-1.05748740660E+02	-9.88877143793E+01	-1.50951021875E+02	-1.33845269372E-02	-1.81095479250E+00
5.55326000000E+08	-9.85271532912E-03	-2.09055765697E+00	-1.00763856776E+02	-1.63304617025E+02	-1.09827504864E+02	-1.36575143293E+01	-8.34850829179E-03	-2.05929775580E+00
5.70324000000E+08	-1.29521393142E-02	-2.01555004965E+00	-1.04692757084E+02	-7.33613249715E+01	-9.22582632644E+01	-1.25495312790E+02	-3.54041345252E-03	-2.01071267777E+00
5.85322000000E+08	-1.64954974170E-02	-1.87230014380E+00	-9.09649703164E+01	-5.13905428117E+01	-9.47263511089E+01	-5.11071837811E+01	8.75852517378E-03	-1.73680942050E+00
6.00320000000E+08	-2.33304517693E-02	-1.88239058592E+00	-9.91948101876E+01	-1.55812723062E+02	-9.20613910733E+01	-1.33399576951E+02	1.70218497057E-03	-1.66950029371E+00
6.15318000000E+08	-2.15866665367E-02	-2.11619491362E+00	-1.08500031362E+02	9.09522184110E+01	-9.99458561802E+01	1.56058528624E+02	-7.84409952541E-03	-1.94775565010E+00
6.30316000000E+08	-1.17845192676E-02	-2.32276939075E+00	-1.03462239458E+02	1.19507026495E+02	-1.01672520227E+02	1.40741494896E+01	-1.49797779509E-02	-2.29361836277E+00
6.45314000000E+08	-6.84672356318E-03	-2.27159425937E+00	-1.03099765678E+02	-6.95300898693E-01	-1.03117718852E+02	-4.46643189678E+01	8.51039245547E-04	-2.29898009845E+00
6.60312000000E+08	-5.90069482162E-03	-2.12881862929E+00	-9.40609249595E+01	-1.26816929664E+02	-9.65226248715E+01	9.29987086984E+01	1.99947327213E-02	-2.04002190199E+00
6.75310000000E+08	-1.20206258840E-02	-2.10926580967E+00	-8.99773413915E+01	-4.35514151524E+01	-9.42789173260E+01	-8.32271790327E+01	2.27247208894E-02	-1.85017112136E+00
6.90308000000E+08	-1.87036013495E-02	-2.34276589924E+00	-1.06182760993E+02	-1.39415644510E+01	-9.75221119631E+01	-1.50928499551E+02	5.45621553331E-04	-2.05090224304E+00
7.05306000000E+08	-1.14319766572E-02	-2.60535307562E+00	-1.03276623265E+02	-1.14884991032E+02	-9.53426216343E+01	6.74073874766E+01	-1.53669093064E-02	-2.44347522118E+00
7.20304000000E+08	-7.16381402242E-03	-2.63450480286E+00	-9.71320135123E+01	4.06372959468E+01	-1.00287999291E+02	-8.07631909083E-01	-1.28557144772E-02	-2.58379173606E+00
7.35302000000E+08	-7.88727289553E-03	-2.46230328141E+00	-9.42114510580E+01	-1.35337412379E+02	-9.76980495390E+01	9.79862665357E+01	1.19948149668E-02	-2.39579009816E+00
7.50300000000E+08	-1.87887866503E-02	-2.32057139528E+00	-9.28442652682E+01	6.47028834470E+01	-9.85361809196E+01	1.64350607178E+02	2.16297980650E-02	-2.10693712612E+00
7.65298000000E+08	-2.82435119642E-02	-2.54081373678E+00	-8.97294692708E+01	-1.16847381612E+02	-1.09732254224E+02	1.25843583612E+02	1.32678491206E-03	-2.20694680781E+00
7.80296000000E+08	-2.37779969987E-02	-2.86378234061E+00	-9.36763320653E+01	1.59153417011E+02	-9.40808721728E+01	2.34481369222E+01	-2.56410086331E-02	-2.58420076188E+00
7.95294000000E+08	-1.16816747032E-02	-2.98203421789E+00	-1.21321277272E+02	1.05851953151E+02	-8.99177529386E+01	7.91986367796E+01	-2.68141470820E-02	-2.83775954885E+00
8.10292000000E+08	5.05230502705E-04	-2.76235906944E+00	-9.90029979766E+01	-3.41684045302E+01	-1.02450785253E+02	1.10906143373E+02	2.17971764193E-03	-2.70881656105E+00
8.25290000000E+08	-5.62984417695E-03	-2.56813782502E+00	-9.92769558282E+01	-1.32583538549E+02	-9.61344310856E+01	-1.43088764883E+02	3.08963897928E-02	-2.42600886028E+00
8.40288000000E+08	-2.06593987195E-02	-2.68517756996E+00	-1.06029028756E+02	1.57489515306E+01	-1.26656086243E+02	-1.66640977511E+02	1.46847930214E-02	-2.37144627583E+00
8.55286000000E+08	-2.21263208869E-02	-3.03619019497E+00	-1.02998892443E+02	1.69464386444E+02	-9.71514671641E+01	8.22391153066E+01	-1.79601501656E-02	-2.70964677070E+00
8.70284000000E+08	-1.13995509407E-02	-3.25647561593E+00	-9.37743566733E+01	2.99372687384E+01	-9.97487214576E+01	3.02183165742E+00	-3.48082806879E-02	-3.00960359941E+00
8.85282000000E+08	5.64203026784E-03	-3.13296339002E+00	-9.52813122004E+01	1.75419477199E+02	-1.06328512715E+02	1.75508373066E+02	-5.22580665135E-03	-3.02704910144E+00
9.00280000000E+08	2.79097981350E-03	-2.83955584613E+00	-1.00280648819E+02	-1.09455808301E+01	-9.99095307107E+01	8.83768824353E+01	3.17288588646E-02	-2.73707012818E+00
9.15278000000E+08	-1.48329820322E-02	-2.81259967986E+00	-8.79572504636E+01	-5.18412878646E+01	-8.68034088056E+01	-1.56626524417E+02	2.76600455282E-02	-2.58242256775E+00
9.30276000000E+08	-3.05108780680E-02	-3.11275683311E+00	-1.02916036715E+02	1.69920576939E+02	-9.13026677169E+01	-1.08790507049E+02	-1.35167571274E-02	-2.76980486857E+00
9.45274000000E+08	-2.47924687826E-02	-3.43384362239E+00	-8.98204454843E+01	-7.39575392256E+01	-8.95953298154E+01	-1.42049708009E+02	-4.37251771554E-02	-3.14793564722E+00
9.60272000000E+08	-5.24347982349E-03	-3.42574230544E+00	-8.93236406532E+01	1.60030806065E+02	-9.28262523631E+01	-4.38844825821E+01	-2.98126777346E-02	-3.35028226485E+00
9.75270000000E+08	1.20024690819E-03	-3.09215572823E+00	-9.10606992619E+01	-1.50553075467E+02	-9.64999383407E+01	1.11086671081E+02	1.46308844042E-02	-3.15839811947E+00
9.90268000000E+08	-1.20020187463E-02	-2.93649430732E+00	-9.22106019624E+01	-1.47590308760E+02	-9.15032701199E+01	-1.34757705056E+02	2.53000232233E-02	-2.90667902263E+00
1.00526600000E+09	-2.97443560930E-02	-3.18378670388E+00	-1.01245884293E+02	-1.76133083595E+02	-1.23082954534E+02	-5.63895087363E+00	-6.87649716591E-03	-2.95049891849E+00
1.02026400000E+09	-2.71065542250E-02	-3.59874448517E+00	-1.00992834154E+02	1.93560737669E+01	-9.11640779496E+01	1.69385682991E+02	-4.20210502321E-02	-3.29654545997E+00
1.03526200000E+09	-1.03831280382E-02	-3.73859898511E+00	-9.67924420152E+01	7.19462611081E+01	-9.22577409880E+01	-1.75857476847E+02	-4.29723922759E-02	-3.58934410424E+00
1.05026000000E+09	1.79447986482E-03	-3.43758274646E+00	-9.92157764999E+01	1.67752371467E+02	-1.01451529937E+02	-1.32361118781E+02	3.12286614422E-03	-3.53237976231E+00
1.06525800000E+09	-3.48594492947E-03	-3.15334826240E+00	-9.63320375773E+01	-1.09084972150E+02	-9.70888488442E+01	9.94698501639E+01	3.10418107028E-02	-3.23598636496E+00
1.08025600000E+09	-2.31308597678E-02	-3.30356009616E+00	-9.33030290026E+01	-1.07644142576E+02	-1.03629657639E+02	-2.60182840804E+00	1.11716629642E-02	-3.16306239280E+00
1.09525400000E+09	-3.05842390462E-02	-3.77686819036E+00	-9.84214894334E+01	-1.37461328274E+02	-1.06110887238E+02	1.18304403197E+02	-3.45430387349E-02	-3.39331617619E+00
1.11025200000E+09	-1.45433325467E-02	-4.10854939835E+00	-9.88211284555E+01	-2.04475208516E+01	-9.39276893918E+01	1.66890660176E+02	-4.23683262728E-02	-3.78469130338E+00
1.12525000000E+09	4.28870483397E-03	-3.91475695514E+00	-1.09691185381E+02	-4.85781478471E+01	-9.05666722725E+01	-2.91625095427E+01	-1.46128431746E-02	-3.87786461837E+00
1.14024800000E+09	2.06132700433E-03	-3.53348504169E+00	-9.28297463178E+01	-1.76072995218E+01	-9.80952266948E+01	2.34077726338E+01	1.91803256964E-02	-3.60930424577E+00
1.15524600000E+09	-1.42875853844E-02	-3.49737229718E+00	-1.02784653474E+02	-2.77978069810E+01	-8.96672928288E+01	3.67736201423E+01	1.58437264501E-02	-3.38940997724E+00
1.17024400000E+09	-3.38257347313E-02	-3.94219461066E+00	-1.02254042533E+02	3.33137861239E+01	-1.01641735914E+02	-1.31559942019E+02	-2.26304629565E-02	-3.51785236747E+00
1.18524200000E+09	-3.10185430571E-02	-4.39212064684E+00	-9.71074109254E+01	-1.34388978480E+02	-1.02999199323E+02	3.26927455379E+01	-5.37453653936E-02	-3.95922029501E+00
1.20024000000E+09	-1.10549034292E-02	-4.37142652814E+00	-9.86428012174E+01	-6.42517522290E+01	-1.01424234622E+02	-8.83391851373E+01	-3.58449695859E-02	-4.21847372921E+00
1.21523800000E+09	5.46171594013E-03	-3.99170334828E+00	-9.43048729392E+01	5.97364844862E+00	-9.66227841963E+01	-6.81770321275E+01	1.04377225529E-03	-4.05084312760E+00
1.23023600000E+09	-6.58656593737E-03	-3.76957771189E+00	-9.27980757769E+01	-1.46123831036E+02	-9.17640901376E+01	-1.62604294036E+02	1.99742483448E-02	-3.68585509370E+00
1.24523400000E+09	-3.11212484039E-02	-4.04250018937E+00	-1.03986306004E+02	-1.58676320892E+02	-9.91863671137E+01	1.37857182393E+02	-3.70893095500E-03	-3.63109643812E+00
1.26023200000E+09	-3.29224291938E-02	-4.51863949083E+00	-9.25147743698E+01	7.63231256589E+01	-9.29120805202E+01	1.22249943853E+02	-4.51410608725E-02	-3.99852305930E+00
1.27523000000E+09	-1.83345124778E-02	-4.70292882899E+00	-9.26166002337E+01	-1.40086022942E+02	-9.86244163229E+01	-1.03205191280E+02	-4.85071372665E-02	-4.35026666203E+00
1.29022800000E+09	4.30587674244E-03	-4.43002826381E+00	-1.03911149812E+02	-1.53575235030E+02	-1.02857462095E+02	3.50741918035E+01	-1.48784962753E-02	-4.32819539936E+00
1.30522600000E+09	3.31346522704E-03	-4.11709423373E+00	-9.66695063728E+01	-5.36688638776E+01	-9.57925678265E+01	-1.66785279494E+02	1.53215025217E-02	-4.01416512385E+00
1.32022400000E+09	-1.79961979745E-02	-4.19966321274E+00	-9.47654579836E+01	-3.18664688293E+01	-9.58418939228E+01	1.81872439334E+01	7.32726051721E-03	-3.83569925328E+00
1.33522200000E+09	-3.32012028355E-02	-4.60872891732E+00	-1.02973894723E+02	4.60268910682E+01	-9.85399041748E+01	-1.59799518607E+02	-2.98647686991E-02	-4.08154619450E+00
1.35022000000E+09	-2.47728318764E-02	-4.92498035693E+00	-9.88830717509E+01	1.13470538926E+02	-8.95912815428E+01	-1.41251973779E+02	-5.20642389058E-02	-4.52069761221E+00
1.36521800000E+09	-5.94540259069E-03	-4.75204815581E+00	-1.00750241703E+02	-5.64298913515E+01	-1.10708367236E+02	1.57130065197E+02	-3.83782724781E-02	-4.65748957826E+00
1.38021600000E+09	-1.95946561064E-03	-4.42248500490E+00	-1.00195992115E+02	6.62386546555E+01	-9.89877400586E+01	-1.48119252815E+02	-9.03514083078E-04	-4.41193970997E+00
1.39521400000E+09	-1.80660561678E-02	-4.38976525738E+00	-9.33918235465E+01	3.76315316609E+01	-9.69173272899E+01	7.51072629192E+01	9.61330213481E-03	-4.15195847078E+00
1.41021200000E+09	-3.75743376214E-02	-4.72029498581E+00	-9.86110917013E+01	3.80911899214E+01	-9.80314687693E+01	5.26308627427E+01	-1.83722589564E-02	-4.22332790356E+00
1.42521000000E+09	-3.36272358382E-02	-5.06980423266E+00	-9.68605682519E+01	8.85791823291E+01	-9.73212733662E+01	-7.82106839577E+01	-5.18910854724E-02	-4.60233507263E+00
1.44020800000E+09	-1.22955292839E-02	-5.01866944449E+00	-1.03973504236E+02	-8.62432030296E+00	-9.00325824818E+01	6.02680450591E+01	-5.39039111351E-02	-4.82064469251E+00
1.45520600000E+09	1.52332245617E-03	-4.68561795945E+00	-1.05817335776E+02	-1.06525646389E+02	-9.32626261940E+01	-1.65116830084E+02	-1.59227017727E-02	-4.69439953606E+00
1.47020400000E+09	-1.10142181708E-02	-4.52921119732E+00	-8.84217035972E+01	-1.05262983355E+02	-1.03251696603E+02	2.32801099503E+01	1.25172121248E-02	-4.40496727915E+00
1.48520200000E+09	-3.28358248614E-02	-4.77551410534E+00	-9.39098316128E+01	7.78864937614E+00	-9.34006047930E+01	8.92731447717E+01	5.09687170843E-05	-4.36974998636E+00
1.50020000000E+09	-3.74826781682E-02	-5.16195951711E+00	-9.60762079775E+01	-9.65448979947E+01	-1.10758379458E+02	-6.61566351782E+01	-4.04170005700E-02	-4.64164715320E+00
1.51519800000E+09	-1.74551333063E-02	-5.23994977018E+00	-1.02302168402E+02	-5.63960872969E+01	-9.24009408129E+01	3.20485620811E+01	-5.86878522891E-02	-4.93700961902E+00
1.53019600000E+09	1.87544121252E-03	-4.98284212041E+00	-9.41807523090E+01	-5.83261520333E+01	-9.60227394880E+01	-1.57900365757E+02	-3.66434832263E-02	-4.95890540754E+00
1.54519400000E+09	-8.35625543605E-03	-4.79685385420E+00	-9.18125207967E+01	2.97057598290E+01	-9.32057274552E+01	1.94892349752E+01	6.66383236965E-03	-4.73572436867E+00
1.56019200000E+09	-3.11102965376E-02	-4.98985194991E+00	-9.05864204790E+01	-3.31311198791E+01	-1.19098206363E+02	-6.68454060385E+01	1.03543673794E-02	-4.62245538855E+00
1.57519000000E+09	-4.38081699887E-02	-5.45048294170E+00	-8.90302970513E+01	-1.56202222537E+02	-1.06161204749E+02	1.27774470943E+02	-2.29422931599E-02	-4.81127725500E+00
1.59018800000E+09	-2.93461024676E-02	-5.64642250513E+00	-9.38726075392E+01	-8.69086556138E+01	-9.82252279681E+01	1.04650245181E+02	-5.54838527448E-02	-5.07746815778E+00
1.60518600000E+09	-8.42637334391E-03	-5.43060154405E+00	-9.54441224201E+01	2.69089248878E+00	-9.61219116173E+01	-3.49724001962E+00	-4.86837665043E-02	-5.15441521951E+00
1.62018400000E+09	-5.35764150113E-03	-5.12854803889E+00	-9.66406080192E+01	-1.31043237285E+02	-1.02140467617E+02	-1.65917104431E+02	-8.29438834065E-03	-4.99782359018E+00
1.63518200000E+09	-2.94851146658E-02	-5.22425316278E+00	-8.73762974034E+01	1.48253258078E+02	-1.08034677256E+02	1.61126203610E+02	7.28944911145E-03	-4.89327208499E+00
1.65018000000E+09	-4.79625558685E-02	-5.63957691183E+00	-8.99994770682E+01	1.30796796875E+00	-1.06152371190E+02	8.42451701243E+01	-1.65984511729E-02	-4.98310677644E+00
1.66517800000E+09	-3.54796322629E-02	-5.93902506290E+00	-9.35069290145E+01	1.72977184559E+02	-9.21728247210E+01	1.51159784571E+02	-5.00060569293E-02	-5.21016029578E+00
1.68017600000E+09	-9.21244316317E-03	-5.78367834792E+00	-9.55538199052E+01	4.55055013083E+01	-9.23732460782E+01	1.22374592356E+02	-5.57519665437E-02	-5.32373210177E+00
1.69517400000E+09	2.51325541982E-03	-5.41708015507E+00	-9.42197246653E+01	7.42791244811E+00	-9.95974781973E+01	1.49873342702E+02	-1.81616794335E-02	-5.24153408959E+00
1.71017200000E+09	-2.02679839064E-02	-5.37256557665E+00	-9.32247131217E+01	9.58911266897E+01	-9.72384637413E+01	3.33731555742E+01	9.44242664747E-03	-5.10842762182E+00
1.72517000000E+09	-4.91502919346E-02	-5.73817843835E+00	-9.35490914248E+01	-3.86417774719E+01	-9.55504998516E+01	4.08103005407E+01	-5.33263834880E-03	-5.19382492575E+00
1.74016800000E+09	-4.76014976223E-02	-6.17933363402E+00	-9.87491688583E+01	3.45767554340E+01	-9.42030548389E+01	-3.89700714038E+01	-4.23999459293E-02	-5.39798078923E+00
