# Hz S DB R 50
! CMT, SC5090, 24087134, 25.3.3/4
! Date: 12.12.2025 15:04:17
! Data: Format (Calibration Info)
! Freq	S11:dB/Ang(F2)	S21:dB/Ang(F2)	S12:dB/Ang(F2)	S22:dB/Ang(F2)
3.00000000000E+05	-4.92884878385E+01	-1.72565097151E+02	6.76256044106E-02	-1.36623918583E-01	4.33474982358E-02	-1.57339184284E-01	-4.98892290513E+01	1.67738409894E+02
4.52985000000E+07	-6.02979992602E+01	-1.08120823510E+02	1.19296743202E-02	-7.80738611767E+00	1.73893016019E-03	-7.91852186445E+00	-5.86813275428E+01	-1.68297043254E+02
9.02970000000E+07	-4.38113195740E+01	-6.92443261757E+01	-1.48769036418E-02	-1.54367822319E+01	-1.97408827512E-02	-1.55187187570E+01	-4.56949500074E+01	-8.18370019471E+01
1.35295500000E+08	-3.82850485928E+01	-8.56107550319E+01	-4.01569277993E-02	-2.30018876877E+01	-3.92639703412E-02	-2.30833586543E+01	-3.89868566497E+01	-8.78039100558E+01
1.80294000000E+08	-3.44489820651E+01	-9.29146734197E+01	-5.82874512961E-02	-3.05698333303E+01	-6.33307733165E-02	-3.06309271919E+01	-3.56023538683E+01	-1.01019695190E+02
2.25292500000E+08	-3.13373538748E+01	-1.02347503445E+02	-7.72799611226E-02	-3.81403014769E+01	-7.92085543939E-02	-3.82159499740E+01	-3.23663241972E+01	-1.11819933437E+02
2.70291000000E+08	-2.95152039024E+01	-1.09955691041E+02	-9.48553734114E-02	-4.57133855793E+01	-9.75162558235E-02	-4.58001857817E+01	-3.07925322490E+01	-1.23545145447E+02
3.15289500000E+08	-2.74805194382E+01	-1.18805409826E+02	-1.10747254625E-01	-5.33265239156E+01	-1.15818156383E-01	-5.34025404782E+01	-2.86757261785E+01	-1.34243078635E+02
3.60288000000E+08	-2.60787698874E+01	-1.27367111750E+02	-1.28682835533E-01	-6.09738604398E+01	-1.31680256852E-01	-6.10333098926E+01	-2.73282652595E+01	-1.43959773281E+02
4.05286500000E+08	-2.50171842544E+01	-1.35287359335E+02	-1.48830124803E-01	-6.86509785716E+01	-1.50602081113E-01	-6.87143200773E+01	-2.62083579631E+01	-1.53633682394E+02
4.50285000000E+08	-2.35222805183E+01	-1.44308599857E+02	-1.65567575706E-01	-7.63564363193E+01	-1.70260947386E-01	-7.64127138810E+01	-2.46949043269E+01	-1.64587793335E+02
4.95283500000E+08	-2.28496859714E+01	-1.50852541190E+02	-1.86393411166E-01	-8.41251287514E+01	-1.89869037369E-01	-8.41896684453E+01	-2.40721872758E+01	-1.73119869551E+02
5.40282000000E+08	-2.18123260980E+01	-1.60740839770E+02	-2.07857877846E-01	-9.19639159604E+01	-2.14406028153E-01	-9.19967594806E+01	-2.29001642684E+01	1.77444013827E+02
5.85280500000E+08	-2.11846382667E+01	-1.68790899712E+02	-2.29146303468E-01	-9.98236021466E+01	-2.34556850853E-01	-9.98584446532E+01	-2.22961561173E+01	1.67448152315E+02
6.30279000000E+08	-2.05446280139E+01	-1.77176393723E+02	-2.48794508995E-01	-1.07759001584E+02	-2.53253486394E-01	-1.07814109140E+02	-2.15230853735E+01	1.58706503603E+02
6.75277500000E+08	-1.98678546084E+01	1.73679125545E+02	-2.65830579590E-01	-1.15815008893E+02	-2.74218768639E-01	-1.15838038074E+02	-2.08341845598E+01	1.48805758007E+02
7.20276000000E+08	-1.95318446895E+01	1.65749881078E+02	-2.85745367684E-01	-1.23937937148E+02	-2.95005345030E-01	-1.23967915662E+02	-2.04361498257E+01	1.40699956041E+02
7.65274500000E+08	-1.89452609913E+01	1.56715135253E+02	-3.11987894011E-01	-1.32162314714E+02	-3.18298903207E-01	-1.32188053318E+02	-1.98066510527E+01	1.30469011644E+02
8.10273000000E+08	-1.87530197164E+01	1.47872137083E+02	-3.28378562970E-01	-1.40508046593E+02	-3.35473645347E-01	-1.40520644531E+02	-1.95680531362E+01	1.21356427487E+02
8.55271500000E+08	-1.84247663311E+01	1.39092952938E+02	-3.46940081218E-01	-1.48961172276E+02	-3.53241022866E-01	-1.49004505476E+02	-1.91355045279E+01	1.12353224619E+02
9.00270000000E+08	-1.82300152470E+01	1.29709285470E+02	-3.69611876208E-01	-1.57615611542E+02	-3.73560319892E-01	-1.57626927927E+02	-1.89698865704E+01	1.02641299224E+02
9.45268500000E+08	-1.82473156730E+01	1.21675111121E+02	-3.91410217219E-01	-1.66367417880E+02	-3.95745634938E-01	-1.66398446000E+02	-1.89102638036E+01	9.37263150334E+01
9.90267000000E+08	-1.81211225711E+01	1.11896898719E+02	-4.12680987616E-01	-1.75334528050E+02	-4.14818856974E-01	-1.75365061939E+02	-1.87923653794E+01	8.41262310336E+01
1.03526550000E+09	-1.86003775959E+01	1.02277372292E+02	-4.25887877449E-01	1.75470437474E+02	-4.28147503152E-01	1.75448606434E+02	-1.91491519239E+01	7.48723948025E+01
1.08026400000E+09	-1.86735602988E+01	9.29195309306E+01	-4.44256372940E-01	1.66096110952E+02	-4.44810202177E-01	1.66064698251E+02	-1.92067738254E+01	6.56584171392E+01
1.12526250000E+09	-1.94625371609E+01	8.27445062785E+01	-4.60509162678E-01	1.56378194623E+02	-4.63006252937E-01	1.56341800730E+02	-1.99409909965E+01	5.56381465774E+01
1.17026100000E+09	-2.04018546420E+01	7.31824725856E+01	-4.77399174439E-01	1.46357314528E+02	-4.78077127108E-01	1.46341509279E+02	-2.07751614920E+01	4.71349422921E+01
1.21525950000E+09	-2.14479836351E+01	6.09117560648E+01	-5.00566670910E-01	1.35925671793E+02	-5.00263363272E-01	1.35916994858E+02	-2.17809723612E+01	3.87328898237E+01
1.26025800000E+09	-2.40165873325E+01	5.05255407065E+01	-5.19471659886E-01	1.25139108305E+02	-5.18721815522E-01	1.25110412555E+02	-2.39975460328E+01	3.13405209666E+01
1.30525650000E+09	-2.71279333816E+01	3.41132151378E+01	-5.46361003977E-01	1.13788793274E+02	-5.44363744212E-01	1.13771663127E+02	-2.63007300050E+01	2.97782832977E+01
1.35025500000E+09	-3.57032979817E+01	-5.12900880007E+00	-5.87863750991E-01	1.01830746735E+02	-5.86286457723E-01	1.01822940684E+02	-3.02221519536E+01	5.03616588405E+01
1.39525350000E+09	-3.27428949277E+01	-1.33079344767E+02	-6.46559225423E-01	8.91664392161E+01	-6.45308743120E-01	8.91193908375E+01	-2.91117186589E+01	9.14853440641E+01
1.44025200000E+09	-2.37600751895E+01	-1.56036543031E+02	-7.29379588125E-01	7.56605033350E+01	-7.27379490381E-01	7.56197036875E+01	-2.35238813136E+01	1.02264349190E+02
1.48525050000E+09	-1.85016528624E+01	-1.73950867598E+02	-8.55030629895E-01	6.11493764238E+01	-8.54672552624E-01	6.11068299468E+01	-1.88680624988E+01	9.62011159100E+01
1.53024900000E+09	-1.49549457866E+01	1.72386720536E+02	-1.05293290310E+00	4.53251846016E+01	-1.05314466786E+00	4.52873983352E+01	-1.55046377585E+01	8.12835031111E+01
1.57524750000E+09	-1.18035707824E+01	1.57274638997E+02	-1.35433090265E+00	2.80804534710E+01	-1.35524928421E+00	2.80493797678E+01	-1.25487426728E+01	6.26753813125E+01
1.62024600000E+09	-9.13945798252E+00	1.41504999481E+02	-1.84197078899E+00	9.08665908391E+00	-1.84019032623E+00	9.03262399650E+00	-9.95970907157E+00	4.03527158626E+01
1.66524450000E+09	-6.91706306034E+00	1.25446469575E+02	-2.57488778706E+00	-1.18876244256E+01	-2.57376383002E+00	-1.19268906655E+01	-7.82261219978E+00	1.39574196024E+01
1.71024300000E+09	-4.94234346181E+00	1.07096535039E+02	-3.73014311729E+00	-3.47717049266E+01	-3.73439654339E+00	-3.48033459080E+01	-5.90717654956E+00	-1.48924203497E+01
1.75524150000E+09	-3.43553879270E+00	8.79226237536E+01	-5.46641294391E+00	-5.92070791673E+01	-5.46099209968E+00	-5.92590127012E+01	-4.37920898127E+00	-4.63956425950E+01
1.80024000000E+09	-2.31971466702E+00	6.86130950220E+01	-7.89169896926E+00	-8.40317369360E+01	-7.88011472971E+00	-8.40839426576E+01	-3.27079092898E+00	-7.88482286268E+01
1.84523850000E+09	-1.61701174528E+00	4.91452562408E+01	-1.10668788196E+01	-1.08013948965E+02	-1.10629205967E+01	-1.08015596226E+02	-2.49492074672E+00	-1.09992249133E+02
1.89023700000E+09	-1.24197983626E+00	3.12226957776E+01	-1.49322633113E+01	-1.30126102298E+02	-1.49240688507E+01	-1.30202912061E+02	-2.00318753226E+00	-1.39416692150E+02
1.93523550000E+09	-1.00006163548E+00	1.41462956491E+01	-1.94806978952E+01	-1.49988404831E+02	-1.94619236847E+01	-1.50057309775E+02	-1.70068769055E+00	-1.65739524368E+02
1.98023400000E+09	-9.27174154374E-01	-1.79049896978E+00	-2.46559765532E+01	-1.67459436974E+02	-2.46497209137E+01	-1.67508164999E+02	-1.47049297535E+00	1.70874425557E+02
2.02523250000E+09	-8.50816280811E-01	-1.67740170142E+01	-3.05284587223E+01	1.77088126683E+02	-3.05215323252E+01	1.77054324420E+02	-1.32505748806E+00	1.49752320124E+02
2.07023100000E+09	-8.13984585618E-01	-3.15899837243E+01	-3.70071808570E+01	1.62385317018E+02	-3.70064925691E+01	1.62325772181E+02	-1.19765418327E+00	1.31288238049E+02
2.11522950000E+09	-8.08734971408E-01	-4.54596647874E+01	-4.30704346022E+01	1.42642546728E+02	-4.30918479858E+01	1.42220604402E+02	-1.08471530162E+00	1.14506315829E+02
2.16022800000E+09	-7.86760970619E-01	-5.93699927385E+01	-4.53728713272E+01	1.12075556409E+02	-4.52876229043E+01	1.11967923866E+02	-9.97454827617E-01	9.93758275599E+01
2.20522650000E+09	-7.93988161607E-01	-7.32744260573E+01	-4.30810160031E+01	8.90658835641E+01	-4.30188067104E+01	8.88112554073E+01	-9.28558467508E-01	8.56365741849E+01
2.25022500000E+09	-7.83156528694E-01	-8.64385762108E+01	-4.00015029168E+01	7.52476622998E+01	-3.99387000566E+01	7.50582449816E+01	-8.63057200237E-01	7.29092289182E+01
2.29522350000E+09	-7.95581056415E-01	-9.99827635164E+01	-3.74343824631E+01	6.39367279830E+01	-3.73773064924E+01	6.39003990722E+01	-8.15489694353E-01	6.10973654178E+01
2.34022200000E+09	-8.09035252883E-01	-1.13354681585E+02	-3.55310111762E+01	5.33812261430E+01	-3.54840746544E+01	5.33617137184E+01	-7.68276576091E-01	5.01533319970E+01
2.38522050000E+09	-7.94503733981E-01	-1.26469914306E+02	-3.41744209922E+01	4.30084459667E+01	-3.41488054097E+01	4.28501854992E+01	-7.28479252973E-01	3.97089949795E+01
2.43021900000E+09	-8.20932691778E-01	-1.39643160934E+02	-3.32325086726E+01	3.26780110840E+01	-3.32100498478E+01	3.27255390809E+01	-7.04526244545E-01	3.00741446234E+01
2.47521750000E+09	-8.25306255547E-01	-1.52589636541E+02	-3.26270370408E+01	2.25957993058E+01	-3.26308443723E+01	2.25655408503E+01	-6.58780098251E-01	2.06254019950E+01
2.52021600000E+09	-8.23757635714E-01	-1.65547960510E+02	-3.23101682905E+01	1.23639357618E+01	-3.23160203676E+01	1.25095957949E+01	-6.45570613230E-01	1.18140249099E+01
2.56521450000E+09	-8.51382369099E-01	-1.78495355352E+02	-3.22154650171E+01	2.53383675269E+00	-3.21887519461E+01	2.19211519620E+00	-6.07409794806E-01	3.32883914071E+00
2.61021300000E+09	-8.38428987698E-01	1.69153183785E+02	-3.22809546373E+01	-7.36989787349E+00	-3.22910888111E+01	-7.36041189443E+00	-6.07462562962E-01	-5.03051434558E+00
2.65521150000E+09	-8.39092533544E-01	1.56260967541E+02	-3.25658812786E+01	-1.68805033333E+01	-3.25525943263E+01	-1.72632191660E+01	-5.79391789901E-01	-1.27748964411E+01
2.70021000000E+09	-8.46218477849E-01	1.44231195562E+02	-3.29814971586E+01	-2.62299541143E+01	-3.29894223431E+01	-2.64891531809E+01	-5.65095052084E-01	-2.06796462444E+01
2.74520850000E+09	-8.11631271371E-01	1.31882705575E+02	-3.35764372072E+01	-3.57216382820E+01	-3.35682329008E+01	-3.57848589247E+01	-5.56062580518E-01	-2.80652109389E+01
2.79020700000E+09	-8.37308606945E-01	1.20136698132E+02	-3.42764584279E+01	-4.48189624301E+01	-3.42548825479E+01	-4.46033972881E+01	-5.37887100945E-01	-3.54644363861E+01
2.83520550000E+09	-7.96286802017E-01	1.08282705039E+02	-3.51165995905E+01	-5.36634557652E+01	-3.50700032700E+01	-5.38014166302E+01	-5.34527110024E-01	-4.26224701563E+01
2.88020400000E+09	-8.03560637249E-01	9.65210486922E+01	-3.60338676607E+01	-6.19505587729E+01	-3.61109336020E+01	-6.24037349804E+01	-5.12986707631E-01	-4.95038576401E+01
2.92520250000E+09	-7.80144144452E-01	8.55058272625E+01	-3.72039132664E+01	-7.09026504649E+01	-3.71696130526E+01	-7.08984693560E+01	-5.08445691674E-01	-5.64045592799E+01
2.97020100000E+09	-7.69276639543E-01	7.40635382908E+01	-3.84149006961E+01	-7.92880537569E+01	-3.83958764580E+01	-7.94389155326E+01	-5.05890196585E-01	-6.30144034101E+01
3.01519950000E+09	-7.51633524192E-01	6.33615069700E+01	-3.98348243648E+01	-8.73332917149E+01	-3.97846144869E+01	-8.76973893681E+01	-4.95522912008E-01	-6.96554100548E+01
3.06019800000E+09	-7.25669723629E-01	5.26737608462E+01	-4.14308504293E+01	-9.50277693974E+01	-4.13940224275E+01	-9.51259865196E+01	-4.97638785060E-01	-7.61674486626E+01
3.10519650000E+09	-7.12962747468E-01	4.22694863828E+01	-4.32345593107E+01	-1.02221685330E+02	-4.31858817403E+01	-1.02302047253E+02	-4.86437859064E-01	-8.24520493525E+01
3.15019500000E+09	-6.95076961802E-01	3.19558559413E+01	-4.52909497976E+01	-1.09675395294E+02	-4.52643796547E+01	-1.09583682680E+02	-4.80226439075E-01	-8.88129351908E+01
3.19519350000E+09	-6.61583387117E-01	2.19839391189E+01	-4.77565109269E+01	-1.15575059789E+02	-4.77444664593E+01	-1.15813457609E+02	-4.94929122045E-01	-9.49870865389E+01
3.24019200000E+09	-6.42471970012E-01	1.23123412956E+01	-5.06927899188E+01	-1.20913993088E+02	-5.07328248065E+01	-1.20233366466E+02	-4.67429261037E-01	-1.01062484714E+02
3.28519050000E+09	-6.28248743322E-01	2.75815365488E+00	-5.46045917764E+01	-1.23042985873E+02	-5.44445642424E+01	-1.21479269838E+02	-4.91641777357E-01	-1.07160211966E+02
3.33018900000E+09	-6.05083214042E-01	-6.79957580585E+00	-6.04139775298E+01	-1.14304382029E+02	-6.01957715074E+01	-1.15433773917E+02	-4.58503784018E-01	-1.13029663183E+02
3.37518750000E+09	-5.94754719292E-01	-1.58879140598E+01	-6.62221614331E+01	-6.60850037660E+01	-6.58074708722E+01	-6.49176159010E+01	-4.73697499673E-01	-1.19064467791E+02
3.42018600000E+09	-5.61806027490E-01	-2.47002373654E+01	-6.15939297323E+01	-1.59092429045E+01	-6.13481429382E+01	-1.57296641341E+01	-4.61433320638E-01	-1.24671349884E+02
3.46518450000E+09	-5.71160826311E-01	-3.38019901771E+01	-5.74225859320E+01	-6.93471189898E+00	-5.72880355450E+01	-7.33602568142E+00	-4.51595615071E-01	-1.30669353363E+02
3.51018300000E+09	-5.17215138623E-01	-4.22018897066E+01	-5.48341411495E+01	-8.72672036945E+00	-5.47904793215E+01	-8.30094164595E+00	-4.56377921027E-01	-1.36221933423E+02
3.55518150000E+09	-5.27443328479E-01	-5.07628164671E+01	-5.32489299680E+01	-1.17121995280E+01	-5.31716264051E+01	-1.22374917717E+01	-4.32237130881E-01	-1.41844714043E+02
3.60018000000E+09	-5.04706144208E-01	-5.89708038464E+01	-5.19984929574E+01	-1.72853411346E+01	-5.19695862663E+01	-1.73405576553E+01	-4.53072913537E-01	-1.47416953332E+02
3.64517850000E+09	-4.89222743930E-01	-6.72414723870E+01	-5.13391770416E+01	-2.31315518612E+01	-5.12604588821E+01	-2.29519419404E+01	-4.28769082135E-01	-1.52995229446E+02
3.69017700000E+09	-4.84880303145E-01	-7.51035924409E+01	-5.07945428831E+01	-2.90851910828E+01	-5.08398097622E+01	-2.92286409063E+01	-4.31776114940E-01	-1.58368102837E+02
3.73517550000E+09	-4.61811563017E-01	-8.30191154190E+01	-5.04377054334E+01	-3.52436626079E+01	-5.05399817408E+01	-3.52224869627E+01	-4.37377408800E-01	-1.63908658323E+02
3.78017400000E+09	-4.60685398925E-01	-9.06534999530E+01	-5.02980161105E+01	-4.05720522076E+01	-5.03401866463E+01	-4.13741482586E+01	-4.12950283383E-01	-1.69176739402E+02
3.82517250000E+09	-4.53405702700E-01	-9.83456297612E+01	-5.02833861635E+01	-4.75779668702E+01	-5.01216897726E+01	-4.68907555132E+01	-4.33767881324E-01	-1.74576517639E+02
3.87017100000E+09	-4.31160804581E-01	-1.05536673100E+02	-5.02308775401E+01	-5.30507769116E+01	-5.02017460370E+01	-5.33164008744E+01	-4.16157383378E-01	-1.79705434176E+02
3.91516950000E+09	-4.44186117971E-01	-1.13134611025E+02	-5.04189959837E+01	-5.95858876039E+01	-5.03338987996E+01	-5.87065489054E+01	-4.21008121853E-01	1.74967067592E+02
3.96016800000E+09	-4.26997252678E-01	-1.20234812446E+02	-5.05769745476E+01	-6.50206874437E+01	-5.06249829577E+01	-6.49267241022E+01	-4.30008948080E-01	1.69924136175E+02
4.00516650000E+09	-4.23591493985E-01	-1.27346765693E+02	-5.09036735476E+01	-7.09351533507E+01	-5.08728581883E+01	-7.10751608995E+01	-3.99143532558E-01	1.64815470340E+02
4.05016500000E+09	-4.33973284262E-01	-1.34350307162E+02	-5.12157239973E+01	-7.65002768368E+01	-5.11085715343E+01	-7.70911085436E+01	-4.35624737274E-01	1.59900122063E+02
4.09516350000E+09	-3.97749679442E-01	-1.41069611319E+02	-5.14789101869E+01	-8.22201876809E+01	-5.14178248154E+01	-8.25631528711E+01	-3.92985218157E-01	1.55024129769E+02
4.14016200000E+09	-4.34620825278E-01	-1.48079507590E+02	-5.18813270303E+01	-8.81237454641E+01	-5.17554977944E+01	-8.86422155262E+01	-4.27009474402E-01	1.49947162899E+02
4.18516050000E+09	-3.87681015481E-01	-1.54549265203E+02	-5.22365674221E+01	-9.41033757046E+01	-5.21301068576E+01	-9.35732475548E+01	-3.90306677316E-01	1.45261838859E+02
4.23015900000E+09	-4.19444118375E-01	-1.61428153521E+02	-5.26354999289E+01	-1.00311707528E+02	-5.26331680375E+01	-9.90881618836E+01	-4.03254084905E-01	1.40275343139E+02
4.27515750000E+09	-3.91952929592E-01	-1.67520421278E+02	-5.30651746008E+01	-1.05122615557E+02	-5.30533461116E+01	-1.04848143775E+02	-3.95326565710E-01	1.35745505885E+02
4.32015600000E+09	-4.08989370935E-01	-1.74324618300E+02	-5.34218509637E+01	-1.11138634806E+02	-5.33144557885E+01	-1.11209348799E+02	-3.92005042282E-01	1.30898196789E+02
4.36515450000E+09	-4.10421197737E-01	1.79412249648E+02	-5.38293931676E+01	-1.16665182363E+02	-5.37615439561E+01	-1.16763914734E+02	-3.97650595133E-01	1.26369034165E+02
4.41015300000E+09	-3.91911884356E-01	1.73063069595E+02	-5.42904128417E+01	-1.21665931085E+02	-5.40837386604E+01	-1.23133722218E+02	-3.76969999667E-01	1.21874540632E+02
4.45515150000E+09	-4.00336804498E-01	1.67115587844E+02	-5.47458707274E+01	-1.28358077965E+02	-5.46153215239E+01	-1.28306183852E+02	-3.88951693956E-01	1.17311274995E+02
4.50015000000E+09	-3.97140031269E-01	1.60909224723E+02	-5.48555533034E+01	-1.33087141007E+02	-5.49036699800E+01	-1.33411169462E+02	-3.74007630100E-01	1.12865803647E+02
4.54514850000E+09	-4.01213947003E-01	1.54783238882E+02	-5.52326730319E+01	-1.38862193920E+02	-5.52670324032E+01	-1.39699158648E+02	-3.72235786310E-01	1.08439047182E+02
4.59014700000E+09	-4.03606046187E-01	1.48593607491E+02	-5.53471599339E+01	-1.45149519181E+02	-5.54065520497E+01	-1.44865036257E+02	-3.76379415717E-01	1.03939037105E+02
4.63514550000E+09	-3.85236521337E-01	1.42945702827E+02	-5.57795899277E+01	-1.49650167176E+02	-5.58214166029E+01	-1.51029586435E+02	-3.60117786253E-01	9.98276146003E+01
4.68014400000E+09	-4.13029731341E-01	1.36668435292E+02	-5.57887350477E+01	-1.56659054121E+02	-5.58854015534E+01	-1.56278484377E+02	-3.66597993992E-01	9.53594940374E+01
4.72514250000E+09	-3.79131628985E-01	1.31312375446E+02	-5.61458079657E+01	-1.60562837822E+02	-5.60133587705E+01	-1.60911504673E+02	-3.61945079365E-01	9.13658090269E+01
4.77014100000E+09	-4.00256576330E-01	1.25002104979E+02	-5.60624208896E+01	-1.66470210418E+02	-5.62709181213E+01	-1.65790213480E+02	-3.49359693104E-01	8.70252041951E+01
4.81513950000E+09	-4.07501059461E-01	1.19429949801E+02	-5.62119291813E+01	-1.72151240755E+02	-5.62641824941E+01	-1.71697416389E+02	-3.62405223073E-01	8.29673511877E+01
4.86013800000E+09	-3.75720078040E-01	1.13522235987E+02	-5.61796714338E+01	-1.76715155379E+02	-5.62203219766E+01	-1.77721643606E+02	-3.36655999752E-01	7.89173140938E+01
4.90513650000E+09	-4.18621835528E-01	1.07957795663E+02	-5.63447775885E+01	1.78105792154E+02	-5.61486801084E+01	1.78649848625E+02	-3.61883373024E-01	7.48012839510E+01
4.95013500000E+09	-3.69146785128E-01	1.02428429333E+02	-5.62095721857E+01	1.72379735790E+02	-5.61777991911E+01	1.73310601121E+02	-3.26098964225E-01	7.09891133397E+01
4.99513350000E+09	-4.29504884368E-01	9.64097556377E+01	-5.62175304961E+01	1.67764471342E+02	-5.62103136434E+01	1.68938076946E+02	-3.49474837953E-01	6.68922078553E+01
5.04013200000E+09	-3.82985642761E-01	9.08775933408E+01	-5.62437271408E+01	1.63569682809E+02	-5.60690551707E+01	1.62778335904E+02	-3.39876518346E-01	6.31386448285E+01
5.08513050000E+09	-3.87322997225E-01	8.51894978172E+01	-5.63090592799E+01	1.58212239137E+02	-5.62435693503E+01	1.58091145921E+02	-3.34774105497E-01	5.90760414066E+01
5.13012900000E+09	-4.07730058831E-01	8.00032432256E+01	-5.61112959848E+01	1.53612322209E+02	-5.61237539505E+01	1.53277184464E+02	-3.38994654563E-01	5.52864520816E+01
5.17512750000E+09	-3.79530868786E-01	7.40270426169E+01	-5.63821416522E+01	1.49512579080E+02	-5.62423432257E+01	1.48657416529E+02	-3.19617888027E-01	5.15157818985E+01
5.22012600000E+09	-4.16005088811E-01	6.86288818427E+01	-5.62797002382E+01	1.45133637996E+02	-5.62138393878E+01	1.44967706794E+02	-3.33410252304E-01	4.76824442293E+01
