# Hz S DB R 50
! CMT, SC5090, 24087134, 25.3.3/4
! Date: 26.11.2025 16:45:14
! Data: Format (Calibration Info)
! Freq	S11:dB/Ang(F2)	S21:dB/Ang(F2)	S12:dB/Ang(F2)	S22:dB/Ang(F2)
3.00000000000E+05	2.72187672043E-02	-7.92241827009E-02	-8.49376634372E+01	-1.34657472351E+01	-8.15266993222E+01	7.45505156487E-01	3.20677923163E-02	-4.55452797544E-02
4.52985000000E+07	9.56992193425E-03	-4.25883474970E+00	-1.01141774056E+02	-1.70565019180E+02	-1.03741976074E+02	-1.16755759626E+02	8.41355334893E-03	-1.54772347037E+00
9.02970000000E+07	5.30051402450E-03	-8.70594607124E+00	-9.52919282835E+01	1.51979370095E+02	-9.36642181182E+01	1.98988892417E+01	4.78433208701E-03	-3.23145442799E+00
1.35295500000E+08	3.60429244093E-03	-1.32191356044E+01	-1.12783949189E+02	-6.62780817318E+01	-9.44810345036E+01	-3.89069740544E+01	7.87993205334E-03	-4.88110696373E+00
1.80294000000E+08	1.11468838728E-02	-1.76743878069E+01	-9.23882198865E+01	-4.40155993057E+01	-1.07824443208E+02	1.20856140668E+02	1.38505024780E-02	-6.44458509791E+00
2.25292500000E+08	1.34048531283E-02	-2.19590576373E+01	-1.01794007899E+02	1.49201710681E+02	-9.43905707629E+01	3.63163347334E+01	4.88412973856E-03	-8.06090229971E+00
2.70291000000E+08	6.17040582007E-03	-2.61439456227E+01	-1.00035958935E+02	-2.68019285072E+00	-1.04193498920E+02	-1.69608838018E+02	5.12071517521E-03	-9.78291736141E+00
3.15289500000E+08	5.64295363374E-03	-3.03638254497E+01	-1.00351289335E+02	1.56904709060E+02	-9.65284376547E+01	1.30320931080E+02	1.49818519574E-02	-1.14273272471E+01
3.60288000000E+08	1.43030267254E-02	-3.47055365170E+01	-1.00459568609E+02	-1.03316946236E+02	-1.03921779503E+02	-5.58258017888E+01	6.35685717104E-03	-1.29507586201E+01
4.05286500000E+08	1.20625969547E-02	-3.91140974198E+01	-9.73915745523E+01	1.13853551665E+02	-1.02264694865E+02	-8.71007391009E+01	5.80215873921E-03	-1.46674963145E+01
4.50285000000E+08	4.50999387922E-03	-4.36142940050E+01	-9.68615902752E+01	-1.22836766615E+02	-1.00383076643E+02	5.36212330654E+00	1.55238676508E-02	-1.63688441103E+01
4.95283500000E+08	1.23690320161E-02	-4.81882117932E+01	-9.63089052573E+01	-3.98099382004E+01	-9.88041476678E+01	-1.70910369094E+02	1.45870302322E-02	-1.77953766357E+01
5.40282000000E+08	1.16239124151E-02	-5.25397555054E+01	-9.60588005993E+01	-9.21906740290E+01	-1.04064751537E+02	3.62582698362E+01	3.10973608686E-03	-1.94361962583E+01
5.85280500000E+08	3.91524548069E-03	-5.67081220231E+01	-1.00854411818E+02	-3.32768726821E+01	-9.47668453302E+01	-5.71210086986E+01	2.73879858324E-03	-2.11891854514E+01
6.30279000000E+08	-2.27295922653E-03	-6.11070918398E+01	-1.01863953273E+02	-9.55141902769E+00	-1.02761383621E+02	-1.44876501807E+02	1.45822391978E-02	-2.26144821157E+01
6.75277500000E+08	3.88666629990E-03	-6.57866016672E+01	-9.08631469485E+01	-4.74116170282E+01	-9.73463078772E+01	6.83610421133E+01	1.41680828129E-02	-2.42392659397E+01
7.20276000000E+08	3.34820709530E-03	-7.02664184278E+01	-1.02084958578E+02	-1.50608724685E+02	-1.04197999976E+02	-7.67106367431E+01	7.85389731297E-05	-2.60653626466E+01
7.65274500000E+08	-2.94743246439E-03	-7.44142977751E+01	-9.71282734878E+01	-5.55193291754E+01	-9.48553748421E+01	1.48357827925E+02	9.90436854806E-03	-2.75263610210E+01
8.10273000000E+08	-9.99394256345E-03	-7.86554768660E+01	-9.24060543306E+01	-1.02737591374E+02	-9.51375071936E+01	-3.43552938156E+01	1.53722583297E-02	-2.90412971444E+01
8.55271500000E+08	-1.43770331530E-02	-8.32129434441E+01	-1.09182741530E+02	-1.03313918057E+01	-9.84049007278E+01	1.33660931110E+02	-4.00920765663E-03	-3.09204763793E+01
9.00270000000E+08	-1.18248548549E-02	-8.77336952076E+01	-9.62521599986E+01	9.49747053691E+01	-1.27055053162E+02	-1.39483386059E+02	1.56350421683E-02	-3.24873456312E+01
9.45268500000E+08	-1.64107264738E-02	-9.20352868991E+01	-9.41299192527E+01	3.49701254046E+01	-9.50223108746E+01	-7.84279219879E+01	2.49659378886E-02	-3.38589547373E+01
9.90267000000E+08	-2.90249692321E-02	-9.64093842250E+01	-9.58902312210E+01	1.01331802581E+02	-1.03461136609E+02	-1.39964971672E+02	-1.05508714008E-02	-3.57137918749E+01
1.03526550000E+09	-3.47091399450E-02	-1.00938857566E+02	-9.49687891551E+01	1.55399525332E+02	-1.13732551231E+02	1.30667682774E+02	1.57024820446E-03	-3.74796486253E+01
1.08026400000E+09	-3.06288076939E-02	-1.05355040647E+02	-9.43856956111E+01	6.25770813562E+01	-1.02756619810E+02	2.48806315980E+01	3.44248095865E-02	-3.88210839537E+01
1.12526250000E+09	-2.95401642107E-02	-1.09516969970E+02	-9.26556591817E+01	1.68389042329E+02	-9.76067491266E+01	-4.25926968740E+00	-9.52996540242E-04	-4.04541464818E+01
1.17026100000E+09	-4.57638775576E-02	-1.13852156235E+02	-9.67181268307E+01	5.10149445094E+01	-9.89941612074E+01	-9.95963236928E+01	-1.09629606244E-02	-4.23091155905E+01
1.21525950000E+09	-5.87890584803E-02	-1.18435992837E+02	-9.34776975033E+01	-1.53204731390E+02	-9.59497559558E+01	2.41980600288E+01	2.17906582230E-02	-4.37448076320E+01
1.26025800000E+09	-5.48864901614E-02	-1.22808393291E+02	-9.95889755517E+01	-9.22903744868E+01	-9.58376628670E+01	1.68692639406E+02	1.01571834264E-02	-4.52137302174E+01
1.30525650000E+09	-5.55813920780E-02	-1.26869821744E+02	-9.13307084737E+01	1.79142230866E+02	-9.75890727622E+01	-1.29463840199E+02	-1.18616472008E-02	-4.70800912266E+01
1.35025500000E+09	-7.21064419501E-02	-1.31208601076E+02	-9.33456001272E+01	5.93455327865E+01	-9.90166010547E+01	-1.15376478656E+02	9.29380601251E-03	-4.86650076701E+01
1.39525350000E+09	-8.39581441957E-02	-1.35750723429E+02	-9.94816895941E+01	1.22019490500E+02	-9.83423219659E+01	1.75692736231E+02	1.26672547727E-02	-5.01267187466E+01
1.44025200000E+09	-8.73498587142E-02	-1.40013608791E+02	-8.90049627361E+01	5.57864805812E+01	-1.04527846805E+02	1.55969412562E+02	-1.54246374232E-02	-5.19391225717E+01
1.48525050000E+09	-8.07523619807E-02	-1.43945840941E+02	-9.42600517213E+01	-5.44399358314E+01	-9.09612713908E+01	1.46800927771E+02	-1.95787336858E-03	-5.35696655912E+01
1.53024900000E+09	-1.05412370005E-01	-1.48296746264E+02	-9.60171941986E+01	-1.75474199462E+02	-9.48230508185E+01	1.57365565562E+02	1.64566817840E-02	-5.49763173409E+01
1.57524750000E+09	-1.19169227003E-01	-1.53018130987E+02	-9.86795567613E+01	-1.11462030114E+02	-9.77551968932E+01	-7.31767785126E+01	-1.22089161055E-02	-5.67691069524E+01
1.62024600000E+09	-1.15118056514E-01	-1.57412750713E+02	-9.90955077749E+01	1.15538139353E+02	-9.43955132580E+01	3.54494788650E+01	-1.98630049361E-02	-5.85085949066E+01
1.66524450000E+09	-1.07482239752E-01	-1.61328157190E+02	-9.48653472427E+01	-1.45343187529E+01	-9.72008741686E+01	1.60307644889E+02	1.26183558023E-02	-5.99331037280E+01
1.71024300000E+09	-1.32894169824E-01	-1.65498941369E+02	-1.06166264215E+02	-1.29001691492E+02	-9.44847328184E+01	8.30835976678E+01	-6.09755153865E-03	-6.16067946189E+01
1.75524150000E+09	-1.53664776218E-01	-1.70109357874E+02	-9.80256685624E+01	-8.36222461884E+00	-1.09384464702E+02	1.08463851070E+02	-3.00629295493E-02	-6.33707624751E+01
1.80024000000E+09	-1.48220024560E-01	-1.74615600241E+02	-9.85321909559E+01	1.60719197863E+02	-1.03108033006E+02	4.55726509799E+01	2.01056599894E-03	-6.48960652644E+01
1.84523850000E+09	-1.40000381983E-01	-1.78737098138E+02	-9.28077396015E+01	1.40714703926E+02	-9.51199742020E+01	1.94645702093E+01	-7.10836266483E-03	-6.65069595862E+01
1.89023700000E+09	-1.59896584066E-01	1.77034217463E+02	-1.04004989124E+02	-5.57330745105E+01	-9.50722426550E+01	1.52892033822E+02	-3.82369194628E-02	-6.82491393451E+01
1.93523550000E+09	-1.77692117705E-01	1.72662832793E+02	-1.04157476389E+02	2.00741752323E+01	-8.97890659154E+01	5.17748571131E+01	-1.11773285586E-02	-6.98358017059E+01
1.98023400000E+09	-1.76710024124E-01	1.68454765757E+02	-9.41265797710E+01	1.24050702724E+02	-9.39324080034E+01	1.11217047783E+02	-2.74511966189E-03	-7.13868516607E+01
2.02523250000E+09	-1.72865105916E-01	1.64311908256E+02	-9.40975650017E+01	1.43766489975E+02	-9.64324758324E+01	-2.24779147045E+01	-3.34164630528E-02	-7.31034448628E+01
2.07023100000E+09	-1.97009987466E-01	1.59859486387E+02	-9.44236961413E+01	-9.52963541505E+01	-1.00382893331E+02	6.13299827683E+01	-3.09302664181E-02	-7.47860973420E+01
2.11522950000E+09	-2.06521625693E-01	1.55311253519E+02	-9.21912078879E+01	3.87274033327E+01	-1.05471544465E+02	-1.73088698923E+02	-5.15989807348E-03	-7.63283688250E+01
2.16022800000E+09	-1.99182296321E-01	1.51053207638E+02	-9.53955713475E+01	6.07552125191E+01	-9.09208978262E+01	1.40297045087E+01	-2.35441977579E-02	-7.79349315731E+01
2.20522650000E+09	-2.03006312306E-01	1.47003337792E+02	-9.04277022577E+01	8.86987621987E+01	-9.43715714153E+01	1.05408241988E+02	-3.60608903062E-02	-7.96729319777E+01
2.25022500000E+09	-2.25137107375E-01	1.42551852304E+02	-9.83230602538E+01	5.07636090022E+01	-9.91635204142E+01	8.26000112159E+01	-1.86393796098E-02	-8.12928295718E+01
2.29522350000E+09	-2.22577500459E-01	1.37925476102E+02	-9.51042292898E+01	-1.51096139060E+02	-1.00094234179E+02	-5.34639602069E+01	-1.65868870184E-02	-8.27876816367E+01
2.34022200000E+09	-2.07312941310E-01	1.33659851332E+02	-9.19173339407E+01	2.82879722829E+01	-9.38269775433E+01	1.63464146824E+01	-3.48171687781E-02	-8.44561819986E+01
2.38522050000E+09	-2.16636564022E-01	1.29702327466E+02	-1.01824183419E+02	7.11571896167E+01	-1.00692245989E+02	1.26022003438E+02	-2.45475442649E-02	-8.61608179249E+01
2.43021900000E+09	-2.42544288667E-01	1.25494491398E+02	-9.19524370556E+01	-6.09030531405E+01	-9.30628051913E+01	1.15562713823E+02	-1.70768001825E-02	-8.77283021478E+01
2.47521750000E+09	-2.47399864734E-01	1.20999804532E+02	-9.52832465820E+01	-3.33265319820E+01	-1.08406975459E+02	1.80156131251E+00	-3.15955062772E-02	-8.92962600424E+01
2.52021600000E+09	-2.27181531818E-01	1.16609995752E+02	-9.30484128034E+01	-3.60017241133E+01	-9.07416103911E+01	5.56729335050E+01	-3.69292279674E-02	-9.10894482923E+01
2.56521450000E+09	-2.36450026898E-01	1.12457602592E+02	-9.71385336300E+01	-8.74510012540E+00	-9.33912220527E+01	-9.78956635184E+01	-1.78486668020E-02	-9.28350041997E+01
2.61021300000E+09	-2.54743153935E-01	1.08177158752E+02	-9.19128252721E+01	1.41678762474E+01	-9.13436467360E+01	-4.80495450502E+01	-2.27090257268E-02	-9.43221532720E+01
2.65521150000E+09	-2.48216091823E-01	1.03820475018E+02	-8.81330531248E+01	-3.84475177185E+01	-9.58891540728E+01	-5.34911189304E+01	-4.04334439136E-02	-9.59366707018E+01
2.70021000000E+09	-2.28156918989E-01	9.95247877737E+01	-9.90114822950E+01	4.13886651238E+01	-9.69523082391E+01	-1.22747805846E+02	-2.78093221199E-02	-9.76367797887E+01
2.74520850000E+09	-2.36480405548E-01	9.54304888309E+01	-9.94609267089E+01	1.17005822418E+02	-9.40340000058E+01	-1.76382237054E+02	-1.90918253385E-02	-9.92408455507E+01
2.79020700000E+09	-2.53536256479E-01	9.11912166069E+01	-9.49655729877E+01	3.84391786301E+01	-9.76220420114E+01	-1.01002810743E+02	-4.81263903164E-02	-1.00833187051E+02
2.83520550000E+09	-2.50911304623E-01	8.68631092878E+01	-9.56031529777E+01	-1.61768299818E+02	-1.06140106563E+02	1.21807086335E+02	-4.01089073460E-02	-1.02592326229E+02
2.88020400000E+09	-2.42099396981E-01	8.27821713384E+01	-9.56464997172E+01	6.22476044630E+01	-9.19999227361E+01	1.06806122093E+02	-1.21786769063E-02	-1.04301144332E+02
2.92520250000E+09	-2.49977008936E-01	7.86556467419E+01	-9.66844270197E+01	-5.76703032167E+01	-9.50355284908E+01	6.44234324409E+01	-4.65636110656E-02	-1.05866535396E+02
2.97020100000E+09	-2.60193909288E-01	7.43402662421E+01	-9.86143380261E+01	-1.10165619872E+02	-9.25562581014E+01	2.31000563218E+00	-4.81536518955E-02	-1.07514917837E+02
3.01519950000E+09	-2.56361303212E-01	6.99697133793E+01	-1.01476750234E+02	-1.31369141020E+02	-1.09272153221E+02	-6.67663926599E+01	-1.42205312457E-02	-1.09141428985E+02
3.06019800000E+09	-2.49067619257E-01	6.59477147004E+01	-9.92765169217E+01	4.89779011830E+01	-8.65678995792E+01	6.07411012494E+01	-5.24816382790E-02	-1.10706229039E+02
3.10519650000E+09	-2.45730198164E-01	6.20347665668E+01	-8.53002755741E+01	-7.82979662436E+00	-9.43335347317E+01	6.38698432025E+01	-6.92225548923E-02	-1.12410247438E+02
3.15019500000E+09	-2.59061428757E-01	5.78170939873E+01	-9.36951010979E+01	-2.93918332460E+01	-1.04608860692E+02	1.07229604644E+02	-3.19996196336E-02	-1.14069658657E+02
3.19519350000E+09	-2.53956030749E-01	5.34041363117E+01	-9.23368861955E+01	-3.49848095067E+01	-9.54943616711E+01	1.63497611754E+02	-3.80154574731E-02	-1.15510963382E+02
3.24019200000E+09	-2.31283036454E-01	4.91559517595E+01	-9.11744223658E+01	-6.47101513761E+01	-9.98539017353E+01	1.68717404619E+01	-7.08609423672E-02	-1.17248425431E+02
3.28519050000E+09	-2.30626811548E-01	4.50478259397E+01	-9.84808943471E+01	1.84190055298E+01	-9.21509808496E+01	1.00494643082E+01	-4.68304176847E-02	-1.19133289390E+02
3.33018900000E+09	-2.54822043819E-01	4.09657021386E+01	-9.11924922509E+01	-7.02722039970E+01	-9.55494154848E+01	1.16267253283E+02	-2.70506324681E-02	-1.20471391431E+02
3.37518750000E+09	-2.57185938956E-01	3.68333160282E+01	-9.37914247239E+01	-7.28998990848E+01	-9.55813841056E+01	4.43364166807E+01	-5.43352780543E-02	-1.21975008473E+02
3.42018600000E+09	-2.37759372800E-01	3.24865366159E+01	-9.06339715207E+01	-5.71302394631E+01	-9.48374210695E+01	1.90576959615E+01	-5.50171347443E-02	-1.24021670683E+02
3.46518450000E+09	-2.41628739377E-01	2.79653495154E+01	-9.12664297348E+01	-3.41022432359E+01	-9.45628922174E+01	4.05863835619E+01	-2.28314698813E-02	-1.25443059713E+02
3.51018300000E+09	-2.49747564569E-01	2.37743620015E+01	-1.05398270849E+02	6.85651691103E+01	-1.16276805391E+02	-7.25705101438E+01	-3.40124744423E-02	-1.26782961881E+02
3.55518150000E+09	-2.32102539445E-01	1.97280816201E+01	-9.72122686065E+01	4.61109279356E+01	-9.24495500715E+01	-6.82340557601E+00	-5.60962576165E-02	-1.28825848594E+02
3.60018000000E+09	-2.26122627371E-01	1.55209613031E+01	-1.02564207834E+02	6.06259850214E+01	-9.36829497511E+01	-1.00431209785E+01	-2.53466636973E-02	-1.30501187414E+02
3.64517850000E+09	-2.45732956607E-01	1.10731508439E+01	-9.27658032485E+01	-3.31654708607E+01	-1.04959765648E+02	1.43737807703E+01	-1.35327600586E-02	-1.31865677409E+02
3.69017700000E+09	-2.39890207891E-01	6.59232158017E+00	-9.60113445931E+01	3.26033121510E+01	-1.02957148218E+02	-8.33946366236E+00	-5.71306518894E-02	-1.33699948593E+02
3.73517550000E+09	-2.24731152641E-01	2.27660709830E+00	-1.04571205055E+02	2.62906737820E+01	-8.84262007687E+01	-3.24991486223E+01	-3.55860000652E-02	-1.35429924336E+02
3.78017400000E+09	-2.28024691952E-01	-1.97038147931E+00	-1.02298139707E+02	-1.53630563793E+02	-9.29811071156E+01	2.11017902969E+01	-8.45497444986E-03	-1.36959391724E+02
3.82517250000E+09	-2.46829282706E-01	-6.39378153396E+00	-1.00968795053E+02	-8.99750053196E+00	-8.81671478106E+01	-2.98130842467E+01	-6.07495716803E-02	-1.38796521703E+02
3.87017100000E+09	-2.36002325735E-01	-1.09985758399E+01	-9.32943013101E+01	-2.72722345629E+01	-9.69838212885E+01	-7.93062147939E+01	-4.83779372097E-02	-1.40445393428E+02
3.91516950000E+09	-2.18595399970E-01	-1.55446100482E+01	-9.50268386506E+01	3.32459170094E+00	-1.15996613709E+02	1.46747138961E+02	-1.23798794896E-02	-1.41867768251E+02
3.96016800000E+09	-2.24272183083E-01	-1.98119722802E+01	-9.52888553096E+01	7.83344125219E+01	-9.16742126846E+01	-2.87685734166E+00	-7.15022216305E-02	-1.43710076307E+02
4.00516650000E+09	-2.30502246395E-01	-2.39276759422E+01	-8.63449215421E+01	-3.12150883110E+01	-8.87096964616E+01	-4.72073527389E+01	-7.19618530422E-02	-1.45556392776E+02
4.05016500000E+09	-2.24913954034E-01	-2.81643864984E+01	-9.22673795960E+01	-1.54995926443E+00	-9.10921101728E+01	-5.01364171738E+00	-1.42316536181E-02	-1.46913158064E+02
4.09516350000E+09	-2.20680401591E-01	-3.27041386849E+01	-9.05305449281E+01	-2.98908203987E+01	-9.70724384190E+01	-3.22563875186E+01	-5.63231433004E-02	-1.48447519014E+02
4.14016200000E+09	-2.20743304166E-01	-3.74505857316E+01	-9.53632654762E+01	-3.49768965285E+01	-1.02499282365E+02	3.27090295305E+01	-9.22117190728E-02	-1.50562296754E+02
4.18516050000E+09	-2.18417871313E-01	-4.19798307418E+01	-9.11670440076E+01	-5.72751024552E+01	-8.89298181641E+01	-9.21814654961E+00	-4.00802854047E-02	-1.52151443816E+02
4.23015900000E+09	-2.10790756970E-01	-4.60223026400E+01	-9.07017611746E+01	-5.29920255058E+01	-9.07777393554E+01	-4.78642765101E+01	-3.82323655209E-02	-1.53374288781E+02
4.27515750000E+09	-2.08890488412E-01	-5.00745448919E+01	-8.95683953448E+01	-4.77504636317E+01	-1.04105372138E+02	-9.42541040581E+01	-9.31955975556E-02	-1.55350328586E+02
4.32015600000E+09	-2.17724575283E-01	-5.47006882111E+01	-1.06441979026E+02	-1.43549598033E+01	-9.47950617321E+01	-1.24224846600E+02	-7.21550199374E-02	-1.57329702935E+02
4.36515450000E+09	-2.26837822189E-01	-5.96842859561E+01	-8.85112306907E+01	-9.86267649321E+01	-8.90490512696E+01	-6.55816537746E+01	-4.65373646353E-02	-1.58680542778E+02
4.41015300000E+09	-2.12342359982E-01	-6.41244227053E+01	-1.18880409161E+02	-1.37250237490E+02	-9.87100109583E+01	-3.83257216510E+01	-8.73875474802E-02	-1.60272850248E+02
4.45515150000E+09	-2.03726385803E-01	-6.80303711102E+01	-9.23955400715E+01	-6.24625084765E+01	-1.02318075216E+02	1.00837414135E+02	-9.54700038032E-02	-1.62236101913E+02
4.50015000000E+09	-2.10259816613E-01	-7.21439077591E+01	-9.36969034599E+01	-6.56280851442E+01	-9.86243029127E+01	-2.58671812506E+01	-6.45880602047E-02	-1.63809061631E+02
4.54514850000E+09	-2.28469508131E-01	-7.68422240283E+01	-9.57371013147E+01	-5.95278591893E+01	-9.46410054829E+01	-7.72710276486E+01	-8.35422859532E-02	-1.65296299091E+02
4.59014700000E+09	-2.11961114526E-01	-8.16271455260E+01	-9.17737339244E+01	-6.05221640102E+01	-1.09631771858E+02	1.22822802092E+02	-1.00539259152E-01	-1.66933600476E+02
4.63514550000E+09	-1.96112870370E-01	-8.60503334193E+01	-8.92995246360E+01	1.53653146172E+02	-8.98909556520E+01	-5.72993143453E+01	-7.49638256337E-02	-1.68551685860E+02
4.68014400000E+09	-2.07535366630E-01	-9.01724554147E+01	-9.11711586898E+01	-1.03829739707E+02	-9.49209181230E+01	-1.48202480690E+02	-9.83497125978E-02	-1.70320307245E+02
4.72514250000E+09	-2.23446551366E-01	-9.42189262069E+01	-1.05780110178E+02	-1.40667999662E+02	-9.05062567467E+01	-6.79316332582E+01	-1.16927356482E-01	-1.71981612127E+02
4.77014100000E+09	-2.10141799734E-01	-9.84144521899E+01	-9.43191872298E+01	-4.71726286169E+01	-9.30349752424E+01	4.74110492394E+01	-8.78622170090E-02	-1.73435752325E+02
4.81513950000E+09	-2.05351624219E-01	-1.02932712198E+02	-9.08597391022E+01	-1.55299678190E+02	-9.68528812948E+01	-7.78443330033E+01	-1.08660626128E-01	-1.75179871937E+02
4.86013800000E+09	-2.30264474051E-01	-1.07524276274E+02	-1.00354757316E+02	-6.04066444560E+01	-9.16071008581E+01	-1.22031444680E+02	-1.45486424756E-01	-1.76997641498E+02
4.90513650000E+09	-2.35053548896E-01	-1.11616491802E+02	-9.32310311672E+01	-5.72841677984E+01	-9.28358970262E+01	5.07170007370E+00	-1.04136445239E-01	-1.78361583982E+02
4.95013500000E+09	-2.07165304037E-01	-1.15284949353E+02	-9.29627150695E+01	-9.59243070937E+01	-9.28860662835E+01	-1.54086172178E+02	-9.27691953381E-02	-1.79814414784E+02
4.99513350000E+09	-2.11544417364E-01	-1.19633831669E+02	-9.09996289573E+01	-4.34858434650E+01	-9.60890045245E+01	1.61864967492E+02	-1.48601936158E-01	1.78218122638E+02
5.04013200000E+09	-2.51523043813E-01	-1.24969527800E+02	-8.85101192352E+01	-7.56409945037E+01	-8.65377925520E+01	-8.21764660642E+01	-1.31371948487E-01	1.76468719371E+02
5.08513050000E+09	-2.41214545437E-01	-1.30047292903E+02	-9.21685596347E+01	-5.38138688017E+01	-9.61868139678E+01	-4.89483935878E+01	-9.60133266162E-02	1.75106598769E+02
5.13012900000E+09	-1.92647739386E-01	-1.33828736421E+02	-8.80267965822E+01	-7.43779260967E+01	-9.37392719568E+01	1.72315688287E+02	-1.36045250401E-01	1.73499830786E+02
5.17512750000E+09	-1.90368755111E-01	-1.37150647714E+02	-9.02242219080E+01	-1.30339075352E+02	-9.45095880541E+01	1.09825914581E+02	-1.42708119733E-01	1.71659220068E+02
5.22012600000E+09	-2.54959900663E-01	-1.41432874614E+02	-9.13171538296E+01	-7.24580142281E+01	-9.54027304650E+01	2.32621636150E+01	-1.13952581346E-01	1.69905276026E+02
