# Hz S DB R 50
! CMT, SC5090, 24087134, 25.3.3/4
! Date: 26.11.2025 16:46:32
! Data: Format (Calibration Info)
! Freq	S11:dB/Ang(F2)	S21:dB/Ang(F2)	S12:dB/Ang(F2)	S22:dB/Ang(F2)
3.00000000000E+05	3.53312596999E-02	-7.68460366724E-02	-8.53880140986E+01	-6.35872684086E+01	-8.17116955668E+01	-7.43399645821E+01	3.92015533175E-02	-3.82957077655E-02
4.52985000000E+07	1.06468713428E-02	-4.23258589923E+00	-9.50769085907E+01	-2.77383991413E+01	-9.53673967720E+01	9.43013525819E+01	1.16828917137E-02	-1.53623325379E+00
9.02970000000E+07	4.89273606683E-03	-8.70714213142E+00	-1.02196747867E+02	4.21943266647E+01	-1.06583974354E+02	-1.70110880047E+02	5.85436013565E-03	-3.23894716366E+00
1.35295500000E+08	4.72663640550E-03	-1.32253269618E+01	-9.52983144303E+01	-3.27747450845E+01	-1.02792396380E+02	-2.39826764648E+00	1.19776645429E-02	-4.88290456324E+00
1.80294000000E+08	1.23242167561E-02	-1.76594702467E+01	-1.00254969143E+02	-1.77299303249E+02	-9.03179045344E+01	1.57911825470E+02	1.74191279655E-02	-6.44608673200E+00
2.25292500000E+08	1.39766006736E-02	-2.19158565552E+01	-9.35826196903E+01	1.12248584864E+02	-9.86095584304E+01	1.21758674129E+02	4.23282650951E-03	-8.06112784481E+00
2.70291000000E+08	5.33113633810E-03	-2.60987709753E+01	-1.01525922943E+02	3.96918810614E+01	-9.13075043095E+01	1.52034326483E+02	7.24897787086E-03	-9.83857027118E+00
3.15289500000E+08	5.46575195787E-03	-3.03463433945E+01	-9.92769984240E+01	1.77023728377E+00	-9.18588320556E+01	1.55659531662E+00	1.93992317050E-02	-1.14938460992E+01
3.60288000000E+08	1.33941680826E-02	-3.47079462166E+01	-9.60186102338E+01	-1.59547829208E+02	-9.56661879048E+01	-1.49986116274E+02	5.35499519967E-03	-1.29716628905E+01
4.05286500000E+08	1.04731372741E-02	-3.90993920795E+01	-9.27239819319E+01	9.02085611328E+01	-9.69597954923E+01	-1.50511066048E+02	5.29678089650E-03	-1.47064504692E+01
4.50285000000E+08	3.43019193986E-03	-4.35801128618E+01	-9.68235384997E+01	-4.84695802251E+01	-9.71117894847E+01	-1.58041759382E+02	1.43746225519E-02	-1.64305565201E+01
4.95283500000E+08	1.16868283740E-02	-4.81599939343E+01	-1.03338919677E+02	1.26445196732E+02	-9.55122548889E+01	4.57203479980E+01	1.41932099804E-02	-1.78128347643E+01
5.40282000000E+08	1.30661835244E-02	-5.25258213918E+01	-9.17927513995E+01	1.47071856024E+02	-1.06672040290E+02	-2.11301321542E+00	5.94494829460E-04	-1.94841583918E+01
5.85280500000E+08	3.45023755929E-03	-5.66672994211E+01	-9.76517648577E+01	-1.52672794510E+02	-9.73420818026E+01	-1.72926415185E+02	2.59652030384E-03	-2.12962730422E+01
6.30279000000E+08	-1.53658471108E-03	-6.10511044929E+01	-8.99802277514E+01	1.13227651758E+02	-9.50840480919E+01	-1.42502325999E+02	1.46722028640E-02	-2.26636209711E+01
6.75277500000E+08	4.71094217552E-03	-6.57722186041E+01	-9.84559868779E+01	1.70509459163E+02	-1.01287184389E+02	1.21845509740E+02	1.41289729286E-02	-2.42802813523E+01
7.20276000000E+08	3.99279673592E-03	-7.02523608075E+01	-1.01948191454E+02	1.44618188661E+02	-9.65043859620E+01	4.55991289275E+01	1.16079835985E-03	-2.61710745065E+01
7.65274500000E+08	-3.09401415170E-03	-7.43626072925E+01	-9.56695170140E+01	-1.78931951918E+02	-9.95342465407E+01	-1.95280601668E+01	1.42854375208E-02	-2.75929707424E+01
8.10273000000E+08	-8.90073810788E-03	-7.85999078543E+01	-9.62606520707E+01	8.69672964167E+01	-1.01744019745E+02	4.94721071446E+01	1.70440789468E-02	-2.90889228403E+01
8.55271500000E+08	-1.43392547208E-02	-8.31988511779E+01	-1.01175483492E+02	1.51948504394E+02	-1.18173888912E+02	-1.18956784191E+02	-6.68426156462E-03	-3.10500988269E+01
9.00270000000E+08	-8.01428751760E-03	-8.77146552031E+01	-1.00826169804E+02	-1.01189297865E+02	-1.02391478759E+02	1.06001301190E+01	1.71466242031E-02	-3.25762438578E+01
9.45268500000E+08	-1.27361457035E-02	-9.19279401178E+01	-1.02750959906E+02	1.39236573182E+02	-1.07675197558E+02	-1.66638213670E+02	2.83072315330E-02	-3.39126132621E+01
9.90267000000E+08	-2.81256445162E-02	-9.62978684221E+01	-1.01313113967E+02	-9.03197629270E+01	-9.75899301733E+01	-1.31689897468E+02	-1.49498993099E-02	-3.58354208854E+01
1.03526550000E+09	-3.41171761465E-02	-1.00916812299E+02	-9.70277424927E+01	4.09914690238E+01	-9.12962196453E+01	1.97971246604E+00	3.30807619369E-03	-3.76222623786E+01
1.08026400000E+09	-2.51919507834E-02	-1.05339610126E+02	-9.39657663850E+01	1.06810522408E+02	-1.04678113311E+02	-1.74280339659E+02	3.63751090578E-02	-3.88806364378E+01
1.12526250000E+09	-2.35028119809E-02	-1.09417568072E+02	-9.57747061421E+01	1.38458647602E+02	-9.63803863358E+01	1.18934062646E+02	-4.18015500199E-03	-4.05538517057E+01
1.17026100000E+09	-4.09592989825E-02	-1.13714805288E+02	-1.06437791879E+02	-4.78477978806E+01	-9.88480039974E+01	-2.19502038558E+01	-1.32825107644E-02	-4.24745469285E+01
1.21525950000E+09	-5.37536903641E-02	-1.18382219039E+02	-1.03821456778E+02	-7.04659312422E+01	-9.15333795708E+01	9.78066032051E+01	2.48789128348E-02	-4.38201902107E+01
1.26025800000E+09	-4.91121891299E-02	-1.22771176107E+02	-1.00025702716E+02	1.10645374831E+02	-9.76529452800E+01	-9.62435217311E+01	8.68735141514E-03	-4.52625628594E+01
1.30525650000E+09	-4.74593238229E-02	-1.26769400268E+02	-1.02423153948E+02	1.34758061683E+02	-9.47741884221E+01	7.86194558472E+01	-1.66089399843E-02	-4.72347770353E+01
1.35025500000E+09	-6.77766958170E-02	-1.31071938532E+02	-9.62914187420E+01	1.16748745347E+02	-9.68851161882E+01	9.65772213800E+01	1.24407029729E-02	-4.87969406109E+01
1.39525350000E+09	-7.87013260647E-02	-1.35677806811E+02	-9.41358192933E+01	-2.10213051484E+00	-1.05644691151E+02	2.44789126019E+01	1.24484457521E-02	-5.01825524890E+01
1.44025200000E+09	-7.87638392595E-02	-1.39956987652E+02	-1.15683448262E+02	1.29539456890E+02	-9.91518496630E+01	-1.77570387921E+02	-1.96417337456E-02	-5.20716028848E+01
1.48525050000E+09	-7.16891517011E-02	-1.43820389318E+02	-1.09155517849E+02	-1.43584341628E+02	-9.28123525658E+01	1.78611925957E+02	-2.88140934371E-03	-5.36936563230E+01
1.53024900000E+09	-9.48238407117E-02	-1.48147280097E+02	-9.47150773417E+01	-3.66120475612E+01	-1.08752198350E+02	-1.37548788163E+02	1.72329737079E-02	-5.50529500301E+01
1.57524750000E+09	-1.12462681855E-01	-1.52947809017E+02	-9.24057223337E+01	1.60895998717E+02	-9.56058525827E+01	1.00389383043E+02	-1.79015770707E-02	-5.69005889710E+01
1.62024600000E+09	-1.06809379716E-01	-1.57329729217E+02	-9.97353436750E+01	3.69276676913E+00	-9.49751991698E+01	-1.46347009900E+02	-2.42986668578E-02	-5.86798973727E+01
1.66524450000E+09	-9.64572834686E-02	-1.61186175801E+02	-1.06884732877E+02	-1.52163260014E+02	-1.03069036861E+02	-1.16694916365E+02	1.59174056517E-02	-6.00335535428E+01
1.71024300000E+09	-1.23794909572E-01	-1.65348721136E+02	-9.15282857251E+01	-9.48631308934E+01	-8.91134625112E+01	-1.46027483019E+02	-9.38326949311E-03	-6.17639215199E+01
1.75524150000E+09	-1.48194068307E-01	-1.70054423109E+02	-1.01865692288E+02	3.01211573777E+00	-9.07451841212E+01	-1.26917583693E+02	-3.69252956270E-02	-6.35656913607E+01
1.80024000000E+09	-1.39212993806E-01	-1.74537187777E+02	-9.23112462229E+01	3.74996550644E+01	-9.60265667698E+01	-1.16611762452E+02	3.29913515062E-03	-6.50356493428E+01
1.84523850000E+09	-1.26484060603E-01	-1.78557546536E+02	-9.29094506466E+01	9.30422335367E+01	-9.46091679104E+01	1.42455869718E+02	-8.65849479466E-03	-6.66464422524E+01
1.89023700000E+09	-1.50435973020E-01	1.77210906885E+02	-9.35797640448E+01	-4.65884224309E+01	-9.06388481214E+01	-1.66441718303E+02	-4.86052693454E-02	-6.84708928126E+01
1.93523550000E+09	-1.73586075335E-01	1.72723496293E+02	-9.02157853355E+01	1.66112287841E+02	-9.70507868411E+01	-5.62868208319E+01	-1.31669202553E-02	-7.00117111501E+01
1.98023400000E+09	-1.66164926302E-01	1.68494233708E+02	-9.53566101507E+01	-9.71128846137E+01	-9.12188267717E+01	-4.99491963143E+01	-1.62806065387E-03	-7.15440546190E+01
2.02523250000E+09	-1.57096547534E-01	1.64490499844E+02	-1.03263559301E+02	-2.13115195663E+01	-9.32796496442E+01	-8.08359650400E+01	-4.22306633649E-02	-7.33067217749E+01
2.07023100000E+09	-1.86135478532E-01	1.60069857185E+02	-1.09758116194E+02	1.42826612166E+02	-9.44102000620E+01	-1.31166473660E+02	-3.54857318486E-02	-7.50092317819E+01
2.11522950000E+09	-1.98253159423E-01	1.55416084085E+02	-1.04041203356E+02	-1.19211246637E+02	-9.06992595166E+01	-1.22312949576E+02	-3.38281435033E-03	-7.65003461769E+01
2.16022800000E+09	-1.82990662231E-01	1.51153326623E+02	-1.04847935124E+02	-1.73088510079E+02	-9.52980085889E+01	-2.82670823818E+01	-2.99741099821E-02	-7.80981658715E+01
2.20522650000E+09	-1.88613451652E-01	1.47166954231E+02	-1.03670736887E+02	-4.22302251956E+01	-1.05101273816E+02	1.42062116712E+02	-4.11604300473E-02	-7.98733984702E+01
2.25022500000E+09	-2.12776805422E-01	1.42738757283E+02	-9.40771856474E+01	1.14967834127E+01	-9.61646272782E+01	1.30505959724E+02	-1.78241737012E-02	-8.14885588684E+01
2.29522350000E+09	-2.15607069657E-01	1.38095901876E+02	-8.91992200371E+01	-5.14478816938E+01	-9.35149352813E+01	1.14758711465E+02	-1.94078008793E-02	-8.29865970585E+01
2.34022200000E+09	-1.93249636048E-01	1.33830994621E+02	-1.03672288474E+02	-1.21246687677E+02	-9.29917736875E+01	-1.10402833582E+02	-4.38100546966E-02	-8.46784076830E+01
2.38522050000E+09	-2.03040405344E-01	1.29910186413E+02	-9.38580074763E+01	1.02305706036E+02	-9.60408429126E+01	-4.47518031046E+01	-2.93174973236E-02	-8.64020077092E+01
2.43021900000E+09	-2.37775744778E-01	1.25690546862E+02	-1.15626250972E+02	1.70813906135E+02	-9.82491514820E+01	-1.63798178160E+02	-1.85527006830E-02	-8.79707806506E+01
2.47521750000E+09	-2.36640284969E-01	1.21182688748E+02	-9.66586605871E+01	7.71226653107E+01	-9.57250424103E+01	-6.39642487380E+01	-3.96199963677E-02	-8.95168402107E+01
2.52021600000E+09	-2.10358382263E-01	1.16810966761E+02	-9.65754836381E+01	5.67322703533E+01	-9.04715789406E+01	-6.38748457203E+01	-4.30406610686E-02	-9.13355045825E+01
2.56521450000E+09	-2.24666193388E-01	1.12676572901E+02	-9.64275491460E+01	-1.51233537791E+02	-9.68405956736E+01	1.25768954161E+02	-2.17831420852E-02	-9.30745513276E+01
2.61021300000E+09	-2.49578121146E-01	1.08387461018E+02	-9.92870816994E+01	-1.56419575336E+02	-1.06448986747E+02	1.12652468033E+02	-2.89946889865E-02	-9.45562853298E+01
2.65521150000E+09	-2.39398515783E-01	1.03940077541E+02	-1.10129916419E+02	-1.79506529456E+02	-9.89496670956E+01	-4.63387039997E+01	-4.73639325698E-02	-9.61816459630E+01
2.70021000000E+09	-2.12881553402E-01	9.96649750467E+01	-8.83925663434E+01	-1.36107947775E+02	-1.04627077865E+02	2.13952748143E+01	-2.83098915891E-02	-9.78824407385E+01
2.74520850000E+09	-2.25381071868E-01	9.56616335070E+01	-1.14520348794E+02	-1.25335305127E+01	-9.91071284716E+01	-9.72570831680E+01	-2.25413741229E-02	-9.95039544315E+01
2.79020700000E+09	-2.46979166474E-01	9.14136361662E+01	-9.11953683131E+01	1.28927644477E+02	-9.05300166838E+01	-8.74326785322E+01	-5.52681960563E-02	-1.01114012267E+02
2.83520550000E+09	-2.42339532487E-01	8.69686039463E+01	-9.36934686683E+01	-1.36977551623E+02	-9.53201071811E+01	-1.66784253719E+02	-4.15204721512E-02	-1.02881382436E+02
2.88020400000E+09	-2.26285242237E-01	8.28594008562E+01	-8.92288154616E+01	-1.31753833103E+02	-9.65569494341E+01	4.53543608597E+00	-1.57500112229E-02	-1.04574221479E+02
2.92520250000E+09	-2.37392267164E-01	7.88246354109E+01	-1.02748927694E+02	-6.50565104101E+01	-9.68635770303E+01	1.43555902955E+02	-5.89550295290E-02	-1.06179597569E+02
2.97020100000E+09	-2.52370994050E-01	7.45726560121E+01	-9.05915042257E+01	-1.72900357783E+02	-9.14761055391E+01	-2.50418550290E+01	-5.66517587013E-02	-1.07837613677E+02
3.01519950000E+09	-2.50999653383E-01	7.01314035782E+01	-1.05565401390E+02	-5.78352123529E+01	-9.73328465931E+01	7.74588702525E+01	-1.31807609723E-02	-1.09414110020E+02
3.06019800000E+09	-2.39105335147E-01	6.60294838116E+01	-9.70095666217E+01	-1.13091587837E+02	-9.80085893788E+01	9.58975867485E+01	-6.41693669428E-02	-1.10999234873E+02
3.10519650000E+09	-2.39380158902E-01	6.21112580997E+01	-9.85527919894E+01	1.31068834589E+02	-9.74145955252E+01	-1.28144287794E+02	-8.22325716672E-02	-1.12749692947E+02
3.15019500000E+09	-2.53039057853E-01	5.78925348461E+01	-9.40008706237E+01	-8.03646238537E+01	-8.89283011081E+01	1.40189187462E+02	-3.20096638264E-02	-1.14438108206E+02
3.19519350000E+09	-2.49824709387E-01	5.34997918349E+01	-1.00437342779E+02	1.83963547784E+00	-9.82100316481E+01	-5.39769196225E+01	-4.25016074395E-02	-1.15805507875E+02
3.24019200000E+09	-2.21152139500E-01	4.92503666767E+01	-9.31556605487E+01	1.75494417142E+02	-9.30694225276E+01	-1.29296326607E+02	-8.91694691363E-02	-1.17598650222E+02
3.28519050000E+09	-2.21652439855E-01	4.50992717801E+01	-9.53907167315E+01	1.46394553768E+02	-9.34650780912E+01	-1.59210109319E+02	-4.86943010792E-02	-1.19484895416E+02
3.33018900000E+09	-2.54832120891E-01	4.09369785444E+01	-9.72631569516E+01	1.42275935614E+02	-9.48583111938E+01	1.38606328108E+02	-2.82457621117E-02	-1.20749974371E+02
3.37518750000E+09	-2.54183385763E-01	3.68283254383E+01	-1.08327844351E+02	-1.38206087168E+02	-1.07718702690E+02	-5.04025346803E+01	-5.94314670164E-02	-1.22279763853E+02
3.42018600000E+09	-2.31703811426E-01	3.25167584720E+01	-9.54159871023E+01	-1.36382239720E+02	-8.91533560141E+01	-1.79063650258E+02	-5.78144259729E-02	-1.24399005133E+02
3.46518450000E+09	-2.35754690635E-01	2.79839717234E+01	-9.46304615302E+01	1.61366840611E+02	-9.72544679665E+01	1.70051819731E+02	-1.85053569027E-02	-1.25778807273E+02
3.51018300000E+09	-2.50263118666E-01	2.37046835766E+01	-9.35264524316E+01	2.65900076317E+01	-9.80548123415E+01	-9.00444779596E+01	-4.23930844940E-02	-1.27128410665E+02
3.55518150000E+09	-2.29570459977E-01	1.96305771238E+01	-8.86019000884E+01	-1.65434648988E+02	-8.85818521818E+01	-1.71686974734E+02	-6.24515330989E-02	-1.29261772212E+02
3.60018000000E+09	-2.17955130510E-01	1.54154072449E+01	-9.06373291432E+01	1.72833182176E+02	-9.19572893755E+01	1.55127678018E+02	-2.04535080949E-02	-1.30927846297E+02
3.64517850000E+09	-2.44056634167E-01	1.09542913094E+01	-9.29527000312E+01	-3.79093193762E+00	-1.00490376901E+02	-1.56279318450E+02	-1.24753333561E-02	-1.32229192368E+02
3.69017700000E+09	-2.44276916715E-01	6.45361539488E+00	-9.30761700359E+01	-1.44915704732E+02	-1.00050700856E+02	9.99914877770E+01	-6.11378404067E-02	-1.34134611235E+02
3.73517550000E+09	-2.21910867487E-01	2.08823450834E+00	-1.02130902279E+02	1.71266160301E+02	-9.74070195841E+01	1.50821993049E+02	-3.24735650502E-02	-1.35812236244E+02
3.78017400000E+09	-2.26429136607E-01	-2.22139106760E+00	-1.04102344293E+02	1.42194376539E+02	-8.97118602343E+01	-1.62843979795E+02	-2.36749126948E-03	-1.37286701635E+02
3.82517250000E+09	-2.49760095138E-01	-6.66422585019E+00	-1.01695014694E+02	-1.70082897782E+02	-8.85972592563E+01	-1.76141609579E+02	-7.04872981286E-02	-1.39252124186E+02
3.87017100000E+09	-2.37842476801E-01	-1.12154140365E+01	-1.05762670068E+02	-1.68575724664E+02	-9.86331301512E+01	1.54861591581E+02	-5.10854233440E-02	-1.40912805661E+02
3.91516950000E+09	-2.18164576156E-01	-1.57744904097E+01	-9.83850918865E+01	1.70816088458E+02	-1.08091182408E+02	1.05419429518E+02	-2.58092162020E-03	-1.42250388738E+02
3.96016800000E+09	-2.28320728877E-01	-2.01241648062E+01	-8.88220026355E+01	6.39410734727E+01	-9.73213465490E+01	7.47535672505E+01	-7.96999473164E-02	-1.44144831988E+02
4.00516650000E+09	-2.37377582734E-01	-2.43127341838E+01	-9.38768309021E+01	1.29837782901E+02	-9.87695126717E+01	1.77880825700E+02	-8.08083592601E-02	-1.46107079301E+02
4.05016500000E+09	-2.26703227740E-01	-2.85902142396E+01	-9.58847839709E+01	1.43907514839E+02	-9.35033062001E+01	5.18420686186E+01	-4.93660519916E-03	-1.47387205023E+02
4.09516350000E+09	-2.18605920978E-01	-3.30598349540E+01	-9.03919218411E+01	1.00820651260E+02	-9.55164090594E+01	-1.37501264178E+01	-6.19565023985E-02	-1.48907162857E+02
4.14016200000E+09	-2.24529757404E-01	-3.78245448771E+01	-1.03002759303E+02	-1.75466028315E+02	-9.23880312782E+01	1.14037327454E+02	-1.03517074937E-01	-1.51164301514E+02
4.18516050000E+09	-2.26876446709E-01	-4.24914014709E+01	-8.55208578135E+01	9.92968931607E+01	-9.57366965961E+01	1.06085595679E+02	-2.96280155384E-02	-1.52707823099E+02
4.23015900000E+09	-2.16709875806E-01	-4.66335062352E+01	-8.66745554677E+01	1.23506386635E+02	-8.70821459948E+01	1.08508083282E+02	-3.64942452810E-02	-1.53851821353E+02
4.27515750000E+09	-2.11937841057E-01	-5.06552944936E+01	-9.70791056438E+01	4.65830804569E+01	-8.84643665236E+01	1.34257574268E+02	-1.07333343883E-01	-1.55938574008E+02
4.32015600000E+09	-2.24179451221E-01	-5.52952896069E+01	-8.98097983780E+01	1.38915126722E+02	-9.23832043661E+01	1.60216053415E+02	-7.35554845541E-02	-1.57974389439E+02
4.36515450000E+09	-2.37771801666E-01	-6.03263867485E+01	-8.94322443752E+01	1.08300279143E+02	-9.16596857332E+01	1.61674020352E+02	-4.17489974230E-02	-1.59208362738E+02
4.41015300000E+09	-2.19747553308E-01	-6.48585298761E+01	-8.94079574489E+01	-1.50809797871E+02	-8.68385222801E+01	1.16266796301E+02	-9.94003180326E-02	-1.60813638197E+02
4.45515150000E+09	-2.04887274558E-01	-6.87970882974E+01	-8.59572920554E+01	8.08622858689E+01	-9.41512800828E+01	6.58693759372E+01	-1.03597010236E-01	-1.62833660420E+02
4.50015000000E+09	-2.13590506785E-01	-7.29488690406E+01	-8.62986760621E+01	1.43201964526E+02	-8.94919117551E+01	1.23349165691E+02	-6.63274745269E-02	-1.64370265615E+02
4.54514850000E+09	-2.35346345441E-01	-7.76474905769E+01	-9.42712475628E+01	1.22977283392E+02	-9.89567799323E+01	5.95041759245E+01	-9.66011035767E-02	-1.65848493977E+02
4.59014700000E+09	-2.16575808286E-01	-8.24320799921E+01	-9.11569858443E+01	1.22403515129E+02	-9.86033147957E+01	9.38259264110E+01	-1.12005601672E-01	-1.67511780153E+02
4.63514550000E+09	-2.02972801020E-01	-8.69087089819E+01	-9.11635112449E+01	1.49918394095E+02	-9.15145771974E+01	1.17518234522E+02	-7.65258032645E-02	-1.69098356408E+02
4.68014400000E+09	-2.21183561577E-01	-9.12018349933E+01	-8.92975009808E+01	7.98339935049E+01	-8.68608216696E+01	9.74428171635E+01	-1.10026082131E-01	-1.70921438640E+02
4.72514250000E+09	-2.39335551758E-01	-9.53447421820E+01	-8.68303295121E+01	7.21033719651E+01	-9.01294400675E+01	1.17276054609E+02	-1.29004105720E-01	-1.72621673558E+02
4.77014100000E+09	-2.13998604746E-01	-9.94772717754E+01	-9.16914194744E+01	6.65949151408E+01	-8.74725760282E+01	7.91978753250E+01	-8.72628998226E-02	-1.73931102751E+02
4.81513950000E+09	-2.10314282661E-01	-1.03944461597E+02	-9.22975058542E+01	-1.70351258092E+02	-8.71297792867E+01	1.06467395993E+02	-1.17050906066E-01	-1.75686913380E+02
4.86013800000E+09	-2.52749791452E-01	-1.08680598838E+02	-9.05352500408E+01	7.87820175873E+01	-9.30892623418E+01	1.06478712301E+02	-1.66727866627E-01	-1.77627977330E+02
4.90513650000E+09	-2.57879046925E-01	-1.12956921448E+02	-9.71988326579E+01	5.68996056282E+01	-9.16165926338E+01	9.21779104616E+01	-1.10558001118E-01	-1.78942060456E+02
4.95013500000E+09	-2.15489223958E-01	-1.16643781564E+02	-9.09762671485E+01	6.49649361649E+01	-9.61623227253E+01	2.83850548368E+01	-9.52005442017E-02	1.79683019055E+02
4.99513350000E+09	-2.18778415346E-01	-1.20913964895E+02	-8.30239985623E+01	8.49143794860E+01	-8.79884743417E+01	-7.01445186528E+00	-1.70308437566E-01	1.77603220846E+02
5.04013200000E+09	-2.70273485430E-01	-1.26309307394E+02	-9.12490066037E+01	1.01390580659E+02	-9.72374856095E+01	6.56516366647E+01	-1.42641463465E-01	1.75842877057E+02
5.08513050000E+09	-2.72335498167E-01	-1.31527643719E+02	-9.52211280350E+01	9.86707394799E+01	-8.74103634948E+01	3.92307732309E+01	-9.48919272706E-02	1.74539030753E+02
5.13012900000E+09	-2.08478880479E-01	-1.35355625924E+02	-1.02159567309E+02	1.39325718480E+02	-9.58926147067E+01	1.51512176780E+02	-1.49595720975E-01	1.72960142670E+02
5.17512750000E+09	-2.08222183969E-01	-1.38646713897E+02	-9.09770338246E+01	3.16149193513E+01	-9.02434926939E+01	1.24261236202E+02	-1.54693632023E-01	1.71071273774E+02
5.22012600000E+09	-2.76325017884E-01	-1.42993895853E+02	-9.00128456477E+01	5.54911061580E+01	-8.81475742541E+01	1.43672121311E+02	-1.19246174351E-01	1.69331764563E+02
