# Hz S DB R 50
! CMT, SC5090, 24087134, 25.3.3/4
! Date: 26.11.2025 16:43:17
! Data: Format (Calibration Info)
! Freq	S11:dB/Ang(F2)	S21:dB/Ang(F2)	S12:dB/Ang(F2)	S22:dB/Ang(F2)
3.00000000000E+05	-4.39117792038E+01	-1.54922008823E+02	9.23225295789E-02	-5.77040460582E-03	5.73243244235E-02	-8.19032780841E-02	-4.54491311971E+01	-1.78451345193E+02
4.52985000000E+07	-4.34363078439E+01	1.59930815296E+02	7.14222184710E-02	-2.20065373236E+00	5.04335576811E-02	-2.31344190344E+00	-4.32596880131E+01	1.57437368151E+02
9.02970000000E+07	-4.27413042428E+01	1.52691920291E+02	6.26362554701E-02	-4.45483498307E+00	5.08516288157E-02	-4.51013707576E+00	-4.35885709649E+01	1.45896551014E+02
1.35295500000E+08	-4.36253475870E+01	1.51354942350E+02	5.20226872594E-02	-6.66062188792E+00	4.71782514698E-02	-6.72150829954E+00	-4.56434052944E+01	1.41704399941E+02
1.80294000000E+08	-4.63568896997E+01	1.39661421882E+02	4.64709818392E-02	-8.88063432730E+00	4.25360397751E-02	-8.91674050152E+00	-4.57424252463E+01	1.32353681095E+02
2.25292500000E+08	-4.76428200816E+01	1.00809711978E+02	4.24554213769E-02	-1.10758195807E+01	3.63494441270E-02	-1.11252830508E+01	-4.31337789280E+01	1.34500408761E+02
2.70291000000E+08	-4.56736881419E+01	7.29448598418E+01	3.58864433647E-02	-1.32746004364E+01	2.94610101585E-02	-1.33068775149E+01	-4.21043242955E+01	1.26022246592E+02
3.15289500000E+08	-4.40985834670E+01	7.28399136938E+01	2.79212591170E-02	-1.54403873712E+01	2.29483854564E-02	-1.54704889400E+01	-4.25982764067E+01	1.05262453546E+02
3.60288000000E+08	-4.21844921004E+01	7.47817417131E+01	2.43148822841E-02	-1.75979994838E+01	1.32251881965E-02	-1.76529984309E+01	-4.19579948518E+01	8.63101868988E+01
4.05286500000E+08	-4.26865260368E+01	7.97457663950E+01	1.80973530867E-02	-1.97778388728E+01	1.04108803447E-02	-1.98276588952E+01	-4.28873615278E+01	7.17757075008E+01
4.50285000000E+08	-4.40510770803E+01	8.58752991391E+01	1.12023733939E-02	-2.19517990622E+01	5.08983768863E-03	-2.20025936101E+01	-4.44443866098E+01	4.49316242422E+01
4.95283500000E+08	-4.56314806276E+01	6.86258166366E+01	9.39204467475E-03	-2.41064880698E+01	-1.33131720863E-03	-2.41574397507E+01	-4.40734322161E+01	3.53124904906E+01
5.40282000000E+08	-4.65093277481E+01	4.85457537285E+01	-1.19460241253E-03	-2.62776727819E+01	-1.20078069599E-02	-2.63231534136E+01	-4.56883586866E+01	5.06108915289E+01
5.85280500000E+08	-4.45459896372E+01	5.09714820851E+01	-5.63839826181E-03	-2.84158180834E+01	-1.68616229348E-02	-2.84548199572E+01	-4.46587459707E+01	4.06536099609E+01
6.30279000000E+08	-4.36150693816E+01	5.08773178343E+01	-8.44362629637E-03	-3.05679401206E+01	-1.80211771203E-02	-3.06159550676E+01	-4.20215238623E+01	2.25658485825E+01
6.75277500000E+08	-4.65449677665E+01	4.38452101705E+01	-1.06940008068E-02	-3.27221787416E+01	-2.43896784217E-02	-3.27393651100E+01	-4.27284713297E+01	1.21725705694E+01
7.20276000000E+08	-5.09159735392E+01	2.23348863793E+01	-1.50725317810E-02	-3.48731536468E+01	-2.61544399939E-02	-3.48848808067E+01	-4.49963758244E+01	-9.24799408891E+00
7.65274500000E+08	-4.69625189718E+01	6.73348272285E+00	-2.01888529037E-02	-3.70367954589E+01	-3.34208183570E-02	-3.70520556390E+01	-4.44721928338E+01	-3.47952159277E+00
8.10273000000E+08	-4.42349353103E+01	5.26255069928E+00	-2.25343838800E-02	-3.91826627471E+01	-3.50880291878E-02	-3.92078876330E+01	-4.39381893906E+01	1.00061722541E+01
8.55271500000E+08	-4.60980672883E+01	1.53849623498E+01	-2.29259174194E-02	-4.13395462267E+01	-3.52992819725E-02	-4.13455181437E+01	-4.42031119594E+01	-1.07424602019E+01
9.00270000000E+08	-4.84381574836E+01	1.20900415725E+01	-2.47932530018E-02	-4.34842369267E+01	-3.84479139432E-02	-4.35031541467E+01	-4.11592846268E+01	-2.67330903446E+01
9.45268500000E+08	-4.76142401967E+01	-1.42256327494E+01	-3.05351518769E-02	-4.56319199576E+01	-4.27774673194E-02	-4.56371310631E+01	-4.16716730429E+01	-2.33226844603E+01
9.90267000000E+08	-4.76978159486E+01	-3.10791121466E+01	-3.54031306136E-02	-4.77838057319E+01	-4.63863971134E-02	-4.77884463556E+01	-4.47187309165E+01	-4.08118096359E+01
1.03526550000E+09	-5.07982609447E+01	-4.25394478808E+01	-3.58094997127E-02	-4.99318194469E+01	-4.66522228949E-02	-4.99254890865E+01	-4.18179069869E+01	-5.47760663373E+01
1.08026400000E+09	-4.81170372787E+01	-5.45885585876E+01	-3.65574622659E-02	-5.20884275655E+01	-4.61707492280E-02	-5.20860899723E+01	-4.06762889387E+01	-4.77674907975E+01
1.12526250000E+09	-4.52611072906E+01	-6.02748366184E+01	-4.02100222194E-02	-5.42373779405E+01	-4.76755508021E-02	-5.42235141223E+01	-4.29883097437E+01	-5.27121128328E+01
1.17026100000E+09	-4.68279081830E+01	-6.54590928333E+01	-4.18513684528E-02	-5.63809154900E+01	-5.08191917511E-02	-5.63679067814E+01	-4.22120705031E+01	-6.87669726787E+01
1.21525950000E+09	-4.89126550525E+01	-7.08560485654E+01	-4.46843637365E-02	-5.85474328297E+01	-5.38746314387E-02	-5.85529729543E+01	-4.04979573882E+01	-6.67762583935E+01
1.26025800000E+09	-4.32597373437E+01	-8.57420224940E+01	-4.47548192760E-02	-6.06947143625E+01	-5.59617462455E-02	-6.06538255359E+01	-4.23160591879E+01	-7.61704965850E+01
1.30525650000E+09	-4.19868615646E+01	-8.92660257780E+01	-4.75381823533E-02	-6.28508171657E+01	-5.30376250188E-02	-6.27863401381E+01	-4.27749800182E+01	-9.59284770773E+01
1.35025500000E+09	-4.34423817303E+01	-8.29241992429E+01	-5.34000394093E-02	-6.49995915047E+01	-5.83008751996E-02	-6.49726801065E+01	-4.14326177210E+01	-8.93469430078E+01
1.39525350000E+09	-4.20529657922E+01	-9.65221410915E+01	-5.34416131183E-02	-6.71496503658E+01	-6.07160371379E-02	-6.71196884597E+01	-4.15252034883E+01	-9.33217445737E+01
1.44025200000E+09	-3.98626818454E+01	-1.11506937897E+02	-5.67735615798E-02	-6.92850000863E+01	-6.02495159707E-02	-6.92561537843E+01	-4.15061965026E+01	-1.20358105210E+02
1.48525050000E+09	-3.97660351096E+01	-9.72563451346E+01	-5.90418587203E-02	-7.14349067549E+01	-5.93456441643E-02	-7.13915662300E+01	-4.20753899142E+01	-1.22344757508E+02
1.53024900000E+09	-3.94916095770E+01	-8.96504814774E+01	-6.13651231312E-02	-7.35895695395E+01	-6.34128725412E-02	-7.35609703877E+01	-4.34692139664E+01	-9.90681267994E+01
1.57524750000E+09	-4.14187260768E+01	-1.10721466716E+02	-6.24133576899E-02	-7.57529309220E+01	-6.54977089145E-02	-7.57323240801E+01	-4.17260410990E+01	-1.10893385606E+02
1.62024600000E+09	-4.09750354097E+01	-1.23400686762E+02	-6.42244984350E-02	-7.78782210485E+01	-6.61406188283E-02	-7.78669953244E+01	-3.91555636829E+01	-1.27505454520E+02
1.66524450000E+09	-3.80797938692E+01	-1.18079333153E+02	-6.74277716360E-02	-8.00224345851E+01	-6.47053777665E-02	-8.00006597779E+01	-4.06106496811E+01	-1.31045544000E+02
1.71024300000E+09	-3.75933698079E+01	-1.14784412276E+02	-7.12188781318E-02	-8.21604535941E+01	-6.88950339244E-02	-8.21693184694E+01	-4.28817324045E+01	-1.35301061015E+02
1.75524150000E+09	-3.96201374670E+01	-1.11719335461E+02	-7.14222731662E-02	-8.43295411401E+01	-6.82019899038E-02	-8.43266451630E+01	-4.14717813782E+01	-1.38139198443E+02
1.80024000000E+09	-3.97555668240E+01	-1.21818854025E+02	-7.42820485278E-02	-8.64855998722E+01	-7.61693240586E-02	-8.65031768746E+01	-4.00783017175E+01	-1.32349485057E+02
1.84523850000E+09	-3.86389182518E+01	-1.36073817690E+02	-7.81809334149E-02	-8.86346025036E+01	-7.06542308038E-02	-8.86457658538E+01	-4.02932161983E+01	-1.34578914145E+02
1.89023700000E+09	-3.83197936308E+01	-1.38059745437E+02	-7.55712489802E-02	-9.07586598292E+01	-7.42845494850E-02	-9.07805018340E+01	-3.89846925006E+01	-1.47333663602E+02
1.93523550000E+09	-3.74583844888E+01	-1.35181622975E+02	-7.62086229729E-02	-9.29138756926E+01	-7.39952134881E-02	-9.29145622049E+01	-3.82300926553E+01	-1.54577799346E+02
1.98023400000E+09	-3.70617193005E+01	-1.37205997842E+02	-8.36778654616E-02	-9.50498728234E+01	-7.78513207178E-02	-9.50862888297E+01	-3.96402083186E+01	-1.57778393002E+02
2.02523250000E+09	-3.72611130829E+01	-1.37639749450E+02	-8.11468402030E-02	-9.71830707514E+01	-7.68686884104E-02	-9.72362486827E+01	-4.03585366180E+01	-1.61749276859E+02
2.07023100000E+09	-3.81646134281E+01	-1.40615801041E+02	-7.96488553284E-02	-9.93306654823E+01	-7.93072935030E-02	-9.94029855264E+01	-3.88196959946E+01	-1.56781468938E+02
2.11522950000E+09	-3.84746941709E+01	-1.49699560842E+02	-8.16842357965E-02	-1.01471390218E+02	-7.97767537237E-02	-1.01530168715E+02	-3.80732376336E+01	-1.57741245123E+02
2.16022800000E+09	-3.73454316862E+01	-1.58775157886E+02	-8.21483375137E-02	-1.03607695908E+02	-7.88205855895E-02	-1.03673855069E+02	-3.80597312588E+01	-1.63260487349E+02
2.20522650000E+09	-3.67224460008E+01	-1.57556845086E+02	-8.14760808667E-02	-1.05738471045E+02	-8.18665327638E-02	-1.05814686739E+02	-3.78348991772E+01	-1.68751324809E+02
2.25022500000E+09	-3.84716536555E+01	-1.54688871242E+02	-8.21124399264E-02	-1.07896763271E+02	-8.47448757304E-02	-1.07980629606E+02	-3.76299930692E+01	-1.64566026514E+02
2.29522350000E+09	-3.91956156377E+01	-1.66360519498E+02	-8.38239474666E-02	-1.10059984541E+02	-8.22708798912E-02	-1.10136930221E+02	-3.77034119557E+01	-1.59988962816E+02
2.34022200000E+09	-3.70891926914E+01	1.74833857629E+02	-8.01446641680E-02	-1.12182589491E+02	-8.61871859786E-02	-1.12278217717E+02	-3.64017944351E+01	-1.67214852423E+02
2.38522050000E+09	-3.60019269805E+01	1.79347816065E+02	-8.11259256311E-02	-1.14340371134E+02	-8.46027468046E-02	-1.14406037671E+02	-3.51878046748E+01	-1.75054781085E+02
2.43021900000E+09	-3.57368592469E+01	-1.73510394692E+02	-8.18677985039E-02	-1.16470387954E+02	-8.42759971814E-02	-1.16554204480E+02	-3.58411719869E+01	-1.79982846241E+02
2.47521750000E+09	-3.70399025291E+01	-1.79841667675E+02	-7.95575323843E-02	-1.18633446929E+02	-8.65819391910E-02	-1.18699935170E+02	-3.70561588874E+01	1.76576260172E+02
2.52021600000E+09	-3.71664516757E+01	1.69158915049E+02	-7.86573868581E-02	-1.20793292037E+02	-8.59910850023E-02	-1.20881509877E+02	-3.56879650560E+01	1.74392272390E+02
2.56521450000E+09	-3.57920439229E+01	1.63327268429E+02	-8.01808205847E-02	-1.22946540247E+02	-8.85202608269E-02	-1.23040680208E+02	-3.44008014981E+01	1.77044010898E+02
2.61021300000E+09	-3.55447868400E+01	1.57257064421E+02	-8.56139617393E-02	-1.25104504969E+02	-8.57618172988E-02	-1.25160785562E+02	-3.45937579438E+01	1.75296873414E+02
2.65521150000E+09	-3.58890251276E+01	1.53783301925E+02	-7.77145423232E-02	-1.27247383962E+02	-8.77817359738E-02	-1.27320288749E+02	-3.43359950835E+01	1.70374297492E+02
2.70021000000E+09	-3.51560465103E+01	1.49869224466E+02	-7.67815961949E-02	-1.29395131262E+02	-8.42400492926E-02	-1.29453158653E+02	-3.35750779305E+01	1.67976027412E+02
2.74520850000E+09	-3.46313346135E+01	1.44558113950E+02	-7.82797590786E-02	-1.31577160793E+02	-8.65576651968E-02	-1.31628675359E+02	-3.35166019892E+01	1.69228973450E+02
2.79020700000E+09	-3.49294391356E+01	1.42387244651E+02	-8.01230768670E-02	-1.33729007909E+02	-9.03395867200E-02	-1.33804517453E+02	-3.35222913358E+01	1.63925664892E+02
2.83520550000E+09	-3.39429804048E+01	1.38261043852E+02	-8.10014109962E-02	-1.35875722808E+02	-9.18736291025E-02	-1.35954098683E+02	-3.23006242622E+01	1.59456751017E+02
2.88020400000E+09	-3.27709300094E+01	1.34782079379E+02	-7.58421665738E-02	-1.38016354812E+02	-9.17160456270E-02	-1.38075377987E+02	-3.19973012928E+01	1.56416229836E+02
2.92520250000E+09	-3.33354068119E+01	1.34658330572E+02	-8.03925626181E-02	-1.40210038762E+02	-9.43412175970E-02	-1.40207313260E+02	-3.25175301965E+01	1.51626699569E+02
2.97020100000E+09	-3.38858761123E+01	1.32481430341E+02	-8.05841698951E-02	-1.42326918141E+02	-9.25690222775E-02	-1.42374750151E+02	-3.23496795781E+01	1.51993366581E+02
3.01519950000E+09	-3.33398376421E+01	1.23774857860E+02	-8.21292591995E-02	-1.44492868791E+02	-9.74664848305E-02	-1.44526842368E+02	-3.19472621370E+01	1.53166541403E+02
3.06019800000E+09	-3.22287574379E+01	1.20145917739E+02	-8.24027837488E-02	-1.46647477962E+02	-9.90594355067E-02	-1.46692815572E+02	-3.15962449780E+01	1.46510854418E+02
3.10519650000E+09	-3.16854797928E+01	1.22710354158E+02	-8.45066480886E-02	-1.48783456040E+02	-9.52010227265E-02	-1.48827959788E+02	-3.10714716227E+01	1.39006341309E+02
3.15019500000E+09	-3.20160397808E+01	1.24491692356E+02	-8.14333598031E-02	-1.50938928905E+02	-9.86981017165E-02	-1.50968710416E+02	-3.11409528200E+01	1.37990598258E+02
3.19519350000E+09	-3.23601095042E+01	1.22254208956E+02	-8.16995752353E-02	-1.53064894478E+02	-9.56399075058E-02	-1.53122793030E+02	-3.19541956222E+01	1.34710798144E+02
3.24019200000E+09	-3.19341981508E+01	1.12994056437E+02	-8.02951893555E-02	-1.55230905308E+02	-9.73434541346E-02	-1.55276309623E+02	-3.13872936946E+01	1.30620306968E+02
3.28519050000E+09	-3.12421967712E+01	1.08832721611E+02	-7.35673037868E-02	-1.57432661060E+02	-9.44475899249E-02	-1.57455371706E+02	-3.03305306049E+01	1.32729159824E+02
3.33018900000E+09	-3.06251548814E+01	1.12281636880E+02	-7.49581835676E-02	-1.59571050985E+02	-9.99589233464E-02	-1.59580680003E+02	-3.04376487532E+01	1.29082597277E+02
3.37518750000E+09	-3.07109596322E+01	1.15164048834E+02	-7.97876164090E-02	-1.61735863099E+02	-9.63853261580E-02	-1.61701471333E+02	-3.07716817901E+01	1.17335037938E+02
3.42018600000E+09	-3.14287904752E+01	1.13520836818E+02	-7.71435101585E-02	-1.63839258725E+02	-9.60346395761E-02	-1.63845464791E+02	-3.08729933526E+01	1.14855150941E+02
3.46518450000E+09	-3.19361330908E+01	1.08958844980E+02	-7.37449593298E-02	-1.66001752687E+02	-9.23162714689E-02	-1.66005574911E+02	-3.14459251938E+01	1.19492686709E+02
3.51018300000E+09	-3.12811694918E+01	1.03672856757E+02	-7.76199407225E-02	-1.68194591048E+02	-9.21858940553E-02	-1.68179576783E+02	-3.12230468902E+01	1.14500859099E+02
3.55518150000E+09	-3.03528321415E+01	1.01751360848E+02	-7.24923200411E-02	-1.70369167019E+02	-8.86755369151E-02	-1.70360328118E+02	-2.99971362510E+01	1.07978053521E+02
3.60018000000E+09	-3.00432292084E+01	1.03792133819E+02	-7.46432010017E-02	-1.72532641605E+02	-8.88719176176E-02	-1.72503994251E+02	-2.99891722183E+01	1.06805620988E+02
3.64517850000E+09	-3.05830647493E+01	1.05138828884E+02	-7.36729212769E-02	-1.74653005876E+02	-8.68255284014E-02	-1.74655244531E+02	-3.10817147812E+01	1.00455431857E+02
3.69017700000E+09	-3.12484697775E+01	1.02439880306E+02	-7.37497452341E-02	-1.76828170056E+02	-8.96255359565E-02	-1.76782139613E+02	-3.07583851040E+01	9.53825363210E+01
3.73517550000E+09	-3.10375206336E+01	9.77582045324E+01	-7.62654241552E-02	-1.79017746476E+02	-8.94771443085E-02	-1.78967606277E+02	-3.03399578621E+01	9.63492330965E+01
3.78017400000E+09	-3.02493072890E+01	9.48005986017E+01	-7.51616286796E-02	1.78844789185E+02	-8.69957518766E-02	1.78858823658E+02	-3.04666114105E+01	9.41917802990E+01
3.82517250000E+09	-3.02317697888E+01	9.63476207247E+01	-7.88361629837E-02	1.76649188419E+02	-9.40772125138E-02	1.76686266764E+02	-3.03472062658E+01	8.66325563564E+01
3.87017100000E+09	-3.13332912024E+01	9.85535813636E+01	-7.53280936012E-02	1.74494733854E+02	-8.90294301671E-02	1.74551419242E+02	-3.06922721439E+01	8.51056734297E+01
3.91516950000E+09	-3.19247481517E+01	9.27334145705E+01	-7.85170232507E-02	1.72375175598E+02	-9.05192150032E-02	1.72429514720E+02	-3.15963029375E+01	8.54138492037E+01
3.96016800000E+09	-3.13247648757E+01	7.93133264056E+01	-8.37961192456E-02	1.70227392219E+02	-9.05569404419E-02	1.70262959692E+02	-3.11303915935E+01	8.45213218107E+01
4.00516650000E+09	-3.05422460884E+01	7.51913044947E+01	-8.38718413587E-02	1.68041829611E+02	-9.57520786765E-02	1.68064861989E+02	-3.02005849121E+01	8.58423888200E+01
4.05016500000E+09	-3.00687786251E+01	8.02279311781E+01	-8.22247792670E-02	1.65871781541E+02	-9.25183152244E-02	1.65919013694E+02	-3.02740772876E+01	8.09097777231E+01
4.09516350000E+09	-3.01192611985E+01	8.28962927906E+01	-8.27931040133E-02	1.63713393982E+02	-9.01656829043E-02	1.63769904655E+02	-3.02575396256E+01	6.78837615857E+01
4.14016200000E+09	-3.11558872755E+01	7.91422666700E+01	-8.41280204392E-02	1.61578509013E+02	-9.26165863766E-02	1.61620420649E+02	-3.05149083066E+01	6.71065977722E+01
4.18516050000E+09	-3.22412098935E+01	7.18639205792E+01	-7.98284558095E-02	1.59456614083E+02	-8.97954179772E-02	1.59474300218E+02	-3.15725128737E+01	7.46301011215E+01
4.23015900000E+09	-3.13223629252E+01	6.41981658409E+01	-8.07721923826E-02	1.57266475949E+02	-9.17755873892E-02	1.57330268095E+02	-3.14644642663E+01	7.20823943617E+01
4.27515750000E+09	-2.98019775432E+01	6.14212581247E+01	-8.55608810316E-02	1.55085051969E+02	-9.50432240123E-02	1.55140002274E+02	-2.96308362553E+01	6.58289255195E+01
4.32015600000E+09	-2.97743778340E+01	6.53591759693E+01	-8.87689377286E-02	1.52908761878E+02	-9.08117243993E-02	1.52934346582E+02	-2.95724322467E+01	6.39679656238E+01
4.36515450000E+09	-3.11397527251E+01	6.79416721160E+01	-8.48464923447E-02	1.50768500129E+02	-9.20129371104E-02	1.50831481307E+02	-3.14940782472E+01	5.89906494253E+01
4.41015300000E+09	-3.24169285056E+01	5.65728439935E+01	-8.38637769006E-02	1.48655316098E+02	-9.02139698087E-02	1.48695625465E+02	-3.17241494958E+01	6.04099476445E+01
4.45515150000E+09	-3.14492751588E+01	4.25208854366E+01	-8.73011812765E-02	1.46517071824E+02	-9.40878055480E-02	1.46537410271E+02	-3.05706434625E+01	6.73311641589E+01
4.50015000000E+09	-3.00503792518E+01	4.13627462919E+01	-8.58243350539E-02	1.44326948526E+02	-9.50092423541E-02	1.44326866524E+02	-3.01513612299E+01	6.71667277170E+01
4.54514850000E+09	-3.01789436887E+01	4.61516239327E+01	-8.56481468802E-02	1.42150480144E+02	-9.72433910685E-02	1.42146326277E+02	-3.04602672357E+01	5.78096217696E+01
4.59014700000E+09	-3.13880277292E+01	4.83863779906E+01	-8.96179783819E-02	1.39984751012E+02	-9.37177406035E-02	1.39987535145E+02	-3.08172066796E+01	5.18900586904E+01
4.63514550000E+09	-3.20796676839E+01	3.88767326112E+01	-8.82839609582E-02	1.37855751976E+02	-9.68475844717E-02	1.37847504027E+02	-3.15354170794E+01	5.47944128281E+01
4.68014400000E+09	-3.14883133832E+01	2.50212722982E+01	-9.06007673116E-02	1.35711924691E+02	-9.87987693474E-02	1.35704131954E+02	-3.14959147427E+01	6.16734875798E+01
4.72514250000E+09	-3.06691705006E+01	1.96870126841E+01	-9.29059882919E-02	1.33548672927E+02	-9.89520583931E-02	1.33559562729E+02	-3.05298080382E+01	6.36218577776E+01
4.77014100000E+09	-3.00241174270E+01	2.26152443767E+01	-9.37324815493E-02	1.31360601819E+02	-1.04188835923E-01	1.31379831179E+02	-3.00688245285E+01	5.82546024775E+01
4.81513950000E+09	-3.00071886110E+01	2.25060314097E+01	-9.98246619317E-02	1.29187225273E+02	-1.07054564987E-01	1.29221902294E+02	-3.02057746326E+01	5.12553518343E+01
4.86013800000E+09	-3.09418571515E+01	1.60306302754E+01	-9.90993530264E-02	1.27028057075E+02	-1.10969526498E-01	1.27079756451E+02	-3.05647856403E+01	5.40139054005E+01
4.90513650000E+09	-3.09301504997E+01	8.25666197346E+00	-9.68578444394E-02	1.24903510215E+02	-1.10997832992E-01	1.24905807802E+02	-3.06088274629E+01	6.03314137582E+01
4.95013500000E+09	-2.90512035484E+01	7.02332072401E+00	-1.00245303993E-01	1.22782395929E+02	-1.08882058842E-01	1.22764024847E+02	-2.92490130575E+01	5.48385070546E+01
4.99513350000E+09	-2.77879619743E+01	1.09103397487E+01	-1.08827724516E-01	1.20619669431E+02	-1.12195040671E-01	1.20553855194E+02	-2.78321300098E+01	4.54716188716E+01
5.04013200000E+09	-2.85087147033E+01	1.73883252332E+01	-1.08736978402E-01	1.18378267953E+02	-1.12514307428E-01	1.18335084026E+02	-2.84629038707E+01	3.95721386864E+01
5.08513050000E+09	-3.06213416584E+01	1.77751483155E+01	-1.02088462667E-01	1.16207277164E+02	-1.08484508153E-01	1.16196245930E+02	-3.03687432047E+01	3.67181999416E+01
5.13012900000E+09	-3.13353189223E+01	-1.68336080504E+00	-1.04277821180E-01	1.14072337272E+02	-1.07501205387E-01	1.14081374500E+02	-3.04901584955E+01	4.29193034472E+01
5.17512750000E+09	-2.89437498771E+01	-1.17012612664E+01	-1.07532643282E-01	1.11951457106E+02	-1.08837918423E-01	1.11964300432E+02	-2.87870513821E+01	4.72737983283E+01
5.22012600000E+09	-2.71556850476E+01	-5.87918984552E+00	-1.11482352668E-01	1.09810494959E+02	-1.15759574280E-01	1.09811567146E+02	-2.77625633141E+01	4.18793494217E+01
5.26512450000E+09	-2.72269207657E+01	9.82985215331E-01	-1.14488137151E-01	1.07565615460E+02	-1.20630247215E-01	1.07649998670E+02	-2.78596996119E+01	3.31454752619E+01
